hour, t(sec), P1 (kW), Q1 (kvar), P2 (kW), Q2 (kvar)
0, 600.00000, 5.16888, 1.38664, 0, 0
0, 1200.00000, 5.10441, 1.44948, 0, 0
0, 1800.00000, 4.96492, 1.21365, 0, 0
0, 2400.00000, 5.12882, 1.33718, 0, 0
0, 3000.00000, 5.03909, 1.26722, 0, 0
1, 0.00000, 4.92614, 1.03737, 0, 0
1, 600.00000, 5.02619, 1.1777, 0, 0
1, 1200.00000, 5.05291, 1.0475, 0, 0
1, 1800.00000, 5.02766, 1.15416, 0, 0
1, 2400.00000, 5.1642, 1.35431, 0, 0
1, 3000.00000, 5.12449, 1.54647, 0, 0
2, 0.00000, 5.07944, 1.4646, 0, 0
2, 600.00000, 5.09971, 1.49276, 0, 0
2, 1200.00000, 4.99947, 1.32483, 0, 0
2, 1800.00000, 5.23468, 1.46184, 0, 0
2, 2400.00000, 4.99265, 1.34413, 0, 0
2, 3000.00000, 5.07032, 1.21049, 0, 0
3, 0.00000, 5.14135, 1.38686, 0, 0
3, 600.00000, 5.1221, 1.30091, 0, 0
3, 1200.00000, 5.08948, 1.23983, 0, 0
3, 1800.00000, 4.91665, 1.16958, 0, 0
3, 2400.00000, 4.93959, 0.929018, 0, 0
3, 3000.00000, 5.18152, 1.37674, 0, 0
4, 0.00000, 5.15618, 1.49605, 0, 0
4, 600.00000, 5.04415, 1.45413, 0, 0
4, 1200.00000, 5.03983, 1.27077, 0, 0
4, 1800.00000, 4.96898, 0.963666, 0, 0
4, 2400.00000, 4.92826, 1.17902, 0, 0
4, 3000.00000, 4.95875, 1.09255, 0, 0
5, 0.00000, 5.1115, 1.23245, 0, 0
5, 600.00000, 5.02149, 1.26138, 0, 0
5, 1200.00000, 5.16116, 1.35669, 0, 0
5, 1800.00000, 4.92107, 1.27846, 0, 0
5, 2400.00000, 5.074, 1.45632, 0, 0
5, 3000.00000, 4.90605, 0.971254, 0, 0
6, 0.00000, 3.7818, 0.583439, 0, 0
6, 600.00000, 3.21484, 0.574441, 0, 0
6, 1200.00000, 2.46399, 0.571722, 0, 0
6, 1800.00000, 2.26177, 0.456573, 0, 0
6, 2400.00000, 2.16098, 0.223438, 0, 0
6, 3000.00000, 2.09271, 0.402795, 0, 0
7, 0.00000, 2.21211, 0.283133, 0, 0
7, 600.00000, 2.92878, 0.442004, 0, 0
7, 1200.00000, 3.9188, 0.164354, 0, 0
7, 1800.00000, 4.11743, 0.236719, 0, 0
7, 2400.00000, 6.45842, 1.32578, 0, 0
7, 3000.00000, 7.00696, 0.889214, 0, 0
8, 0.00000, 7.95514, 1.4078, 0, 0
8, 600.00000, 14.1813, 2.39946, 0, 0
8, 1200.00000, 17.4122, 3.21525, 0, 0
8, 1800.00000, 18.388, 3.50074, 0, 0
8, 2400.00000, 18.9334, 3.52813, 0, 0
8, 3000.00000, 17.8132, 3.40115, 0, 0
9, 0.00000, 19.4806, 2.64548, 0, 0
9, 600.00000, 20.119, 2.42125, 0, 0
9, 1200.00000, 21.6373, 1.53035, 0, 0
9, 1800.00000, 21.5472, 1.07154, 0, 0
9, 2400.00000, 20.0934, 1.34409, 0, 0
9, 3000.00000, 20.0731, 1.52244, 0, 0
10, 0.00000, 19.5065, 1.38147, 0, 0
10, 600.00000, 18.1577, 2.4029, 0, 0
10, 1200.00000, 19.9974, 2.10283, 0, 0
10, 1800.00000, 20.9436, 3.04495, 0, 0
10, 2400.00000, 21.9967, 2.23363, 0, 0
10, 3000.00000, 19.2606, 3.15979, 0, 0
11, 0.00000, 19.7128, 3.26318, 0, 0
11, 600.00000, 24.0942, 2.88618, 0, 0
11, 1200.00000, 22.8527, 3.41922, 0, 0
11, 1800.00000, 21.1833, 3.29549, 0, 0
11, 2400.00000, 19.1592, 4.18641, 0, 0
11, 3000.00000, 20.1237, 4.13868, 0, 0
12, 0.00000, 19.7479, 2.95616, 0, 0
12, 600.00000, 18.4775, 3.85089, 0, 0
12, 1200.00000, 16.1539, 4.27356, 0, 0
12, 1800.00000, 16.3474, 2.88128, 0, 0
12, 2400.00000, 16.351, 2.298, 0, 0
12, 3000.00000, 17.8803, 2.58884, 0, 0
13, 0.00000, 18.7215, 3.58927, 0, 0
13, 600.00000, 20.2572, 5.39561, 0, 0
13, 1200.00000, 24.763, 5.09552, 0, 0
13, 1800.00000, 22.7634, 5.85405, 0, 0
13, 2400.00000, 17.9396, 4.05926, 0, 0
13, 3000.00000, 19.558, 3.33944, 0, 0
14, 0.00000, 14.3041, 2.79103, 0, 0
14, 600.00000, 16.1935, 2.39545, 0, 0
14, 1200.00000, 18.5326, 1.65032, 0, 0
14, 1800.00000, 16.0139, 2.70629, 0, 0
14, 2400.00000, 16.1032, 2.27886, 0, 0
14, 3000.00000, 15.38, 3.18866, 0, 0
15, 0.00000, 14.5527, 3.34426, 0, 0
15, 600.00000, 15.1948, 2.68457, 0, 0
15, 1200.00000, 13.6351, 2.87615, 0, 0
15, 1800.00000, 13.1975, 2.09332, 0, 0
15, 2400.00000, 12.6023, 2.07364, 0, 0
15, 3000.00000, 12.0127, 1.45758, 0, 0
16, 0.00000, 9.57037, 0.812686, 0, 0
16, 600.00000, 11.0499, 1.1468, 0, 0
16, 1200.00000, 12.0661, 3.04416, 0, 0
16, 1800.00000, 11.7787, 2.85199, 0, 0
16, 2400.00000, 10.1112, 2.91273, 0, 0
16, 3000.00000, 7.74649, 2.24766, 0, 0
17, 0.00000, 7.85022, 2.28504, 0, 0
17, 600.00000, 8.11602, 1.64886, 0, 0
17, 1200.00000, 8.16162, 1.38159, 0, 0
17, 1800.00000, 8.03015, 1.31512, 0, 0
17, 2400.00000, 8.9613, 1.53353, 0, 0
17, 3000.00000, 8.82485, 1.87849, 0, 0
18, 0.00000, 10.5257, 2.60026, 0, 0
18, 600.00000, 10.2401, 2.52045, 0, 0
18, 1200.00000, 10.8399, 2.98836, 0, 0
18, 1800.00000, 10.2466, 2.61878, 0, 0
18, 2400.00000, 10.5442, 3.00531, 0, 0
18, 3000.00000, 10.7422, 3.18167, 0, 0
19, 0.00000, 0, 0, 0, 0
19, 600.00000, 0, 0, 0, 0
19, 1200.00000, 0, 0, 0, 0
19, 1800.00000, 0, 0, 0, 0
19, 2400.00000, 0, 0, 0, 0
19, 3000.00000, 0, 0, 0, 0
20, 0.00000, 0, 0, 0, 0
20, 600.00000, 0, 0, 0, 0
20, 1200.00000, 0, 0, 0, 0
20, 1800.00000, 0, 0, 0, 0
20, 2400.00000, 0, 0, 0, 0
20, 3000.00000, 0, 0, 0, 0
21, 0.00000, 0, 0, 0, 0
21, 600.00000, 0, 0, 0, 0
21, 1200.00000, 0, 0, 0, 0
21, 1800.00000, 0, 0, 0, 0
21, 2400.00000, 0, 0, 0, 0
21, 3000.00000, 0, 0, 0, 0
22, 0.00000, 0, 0, 0, 0
22, 600.00000, 0, 0, 0, 0
22, 1200.00000, 0, 0, 0, 0
22, 1800.00000, 0, 0, 0, 0
22, 2400.00000, 0, 0, 0, 0
22, 3000.00000, 0, 0, 0, 0
23, 0.00000, 5.16891, 1.38655, 0, 0
