hour, t(sec), P1 (kW), Q1 (kvar), P2 (kW), Q2 (kvar)
0, 600.00000, 5.03697, 5.3871, 0, 0
0, 1200.00000, 5.36327, 5.51561, 0, 0
0, 1800.00000, 4.98889, 5.36396, 0, 0
0, 2400.00000, 5.11805, 4.90447, 0, 0
0, 3000.00000, 5.05859, 5.0873, 0, 0
1, 0.00000, 5.31355, 5.27419, 0, 0
1, 600.00000, 5.11597, 5.44404, 0, 0
1, 1200.00000, 5.33993, 5.48811, 0, 0
1, 1800.00000, 4.97338, 5.2441, 0, 0
1, 2400.00000, 5.47357, 5.41417, 0, 0
1, 3000.00000, 4.93422, 5.18958, 0, 0
2, 0.00000, 5.10718, 4.83598, 0, 0
2, 600.00000, 4.55025, 5.09866, 0, 0
2, 1200.00000, 4.80506, 4.9602, 0, 0
2, 1800.00000, 4.6273, 4.89032, 0, 0
2, 2400.00000, 4.84118, 5.00848, 0, 0
2, 3000.00000, 5.03333, 5.04838, 0, 0
3, 0.00000, 5.07537, 5.63939, 0, 0
3, 600.00000, 5.59138, 5.42168, 0, 0
3, 1200.00000, 4.64025, 4.95567, 0, 0
3, 1800.00000, 5.09135, 5.04504, 0, 0
3, 2400.00000, 4.89857, 5.12654, 0, 0
3, 3000.00000, 4.84118, 5.14883, 0, 0
4, 0.00000, 5.39588, 5.27692, 0, 0
4, 600.00000, 4.8698, 4.96346, 0, 0
4, 1200.00000, 4.80026, 4.62062, 0, 0
4, 1800.00000, 5.01383, 4.90053, 0, 0
4, 2400.00000, 4.76541, 4.77475, 0, 0
4, 3000.00000, 5.17592, 4.92235, 0, 0
5, 0.00000, 5.00103, 5.65389, 0, 0
5, 600.00000, 5.1406, 5.19919, 0, 0
5, 1200.00000, 4.90113, 4.96696, 0, 0
5, 1800.00000, 4.564, 4.98316, 0, 0
5, 2400.00000, 5.66731, 4.99899, 0, 0
5, 3000.00000, 5.68378, 5.13125, 0, 0
6, 0.00000, 5.72309, 5.59793, 0, 0
6, 600.00000, 6.34909, 5.47904, 0, 0
6, 1200.00000, 6.90938, 5.15082, 0, 0
6, 1800.00000, 6.93974, 5.22828, 0, 0
6, 2400.00000, 7.61114, 4.95553, 0, 0
6, 3000.00000, 10.7428, 4.5483, 0, 0
7, 0.00000, 13.7038, 4.43292, 0, 0
7, 600.00000, 13.5133, 3.7613, 0, 0
7, 1200.00000, 12.9848, 3.79573, 0, 0
7, 1800.00000, 14.2617, 3.82183, 0, 0
7, 2400.00000, 15.126, 4.70417, 0, 0
7, 3000.00000, 17.5152, 5.63936, 0, 0
8, 0.00000, 22.982, 6.15422, 0, 0
8, 600.00000, 23.7591, 5.1775, 0, 0
8, 1200.00000, 26.0323, 5.07424, 0, 0
8, 1800.00000, 25.388, 4.96577, 0, 0
8, 2400.00000, 26.4527, 4.84765, 0, 0
8, 3000.00000, 26.6397, 4.77711, 0, 0
9, 0.00000, 27.6867, 4.55245, 0, 0
9, 600.00000, 29.7055, 4.82474, 0, 0
9, 1200.00000, 31.1506, 6.2352, 0, 0
9, 1800.00000, 33.048, 7.72393, 0, 0
9, 2400.00000, 33.443, 8.53334, 0, 0
9, 3000.00000, 34.7794, 8.8108, 0, 0
10, 0.00000, 34.5557, 9.18017, 0, 0
10, 600.00000, 34.8849, 9.50712, 0, 0
10, 1200.00000, 34.9411, 8.65566, 0, 0
10, 1800.00000, 35.4076, 9.29373, 0, 0
10, 2400.00000, 34.3879, 7.97685, 0, 0
10, 3000.00000, 33.6269, 8.17738, 0, 0
11, 0.00000, 33.3664, 7.84436, 0, 0
11, 600.00000, 31.6688, 7.66129, 0, 0
11, 1200.00000, 33.9144, 8.44803, 0, 0
11, 1800.00000, 30.7066, 8.59766, 0, 0
11, 2400.00000, 31.7678, 8.33095, 0, 0
11, 3000.00000, 31.1652, 7.96406, 0, 0
12, 0.00000, 31.87, 8.39196, 0, 0
12, 600.00000, 31.6048, 7.40798, 0, 0
12, 1200.00000, 30.4714, 7.22363, 0, 0
12, 1800.00000, 30.5912, 6.26986, 0, 0
12, 2400.00000, 30.919, 6.79021, 0, 0
12, 3000.00000, 32.3001, 6.05948, 0, 0
13, 0.00000, 33.061, 7.43458, 0, 0
13, 600.00000, 35.916, 8.19616, 0, 0
13, 1200.00000, 34.9202, 8.47665, 0, 0
13, 1800.00000, 36.2388, 8.25058, 0, 0
13, 2400.00000, 35.0768, 8.85621, 0, 0
13, 3000.00000, 36.76, 8.5002, 0, 0
14, 0.00000, 37.4363, 8.97287, 0, 0
14, 600.00000, 36.9935, 9.8602, 0, 0
14, 1200.00000, 38.5439, 10.0571, 0, 0
14, 1800.00000, 37.6872, 9.72054, 0, 0
14, 2400.00000, 35.7514, 9.86199, 0, 0
14, 3000.00000, 36.6099, 9.3888, 0, 0
15, 0.00000, 35.2624, 8.93244, 0, 0
15, 600.00000, 33.7789, 8.41503, 0, 0
15, 1200.00000, 32.1613, 8.08207, 0, 0
15, 1800.00000, 28.0658, 7.46557, 0, 0
15, 2400.00000, 27.1385, 7.39832, 0, 0
15, 3000.00000, 27.3287, 6.98127, 0, 0
16, 0.00000, 27.3846, 7.29434, 0, 0
16, 600.00000, 27.957, 7.47871, 0, 0
16, 1200.00000, 22.2359, 7.20629, 0, 0
16, 1800.00000, 22.0791, 7.50294, 0, 0
16, 2400.00000, 19.6414, 6.81815, 0, 0
16, 3000.00000, 17.1492, 6.43973, 0, 0
17, 0.00000, 14.1315, 6.15323, 0, 0
17, 600.00000, 13.5549, 5.93574, 0, 0
17, 1200.00000, 11.8278, 6.2094, 0, 0
17, 1800.00000, 10.6884, 5.55077, 0, 0
17, 2400.00000, 8.49595, 4.98205, 0, 0
17, 3000.00000, 8.06272, 4.52602, 0, 0
18, 0.00000, 7.77563, 4.48063, 0, 0
18, 600.00000, 6.80915, 4.24479, 0, 0
18, 1200.00000, 6.83025, 4.88264, 0, 0
18, 1800.00000, 5.84699, 5.1642, 0, 0
18, 2400.00000, 5.20693, 5.05497, 0, 0
18, 3000.00000, 4.64616, 4.89625, 0, 0
19, 0.00000, 4.50981, 5.03042, 0, 0
19, 600.00000, 4.44315, 4.66378, 0, 0
19, 1200.00000, 4.27179, 4.71353, 0, 0
19, 1800.00000, 4.41949, 4.7629, 0, 0
19, 2400.00000, 4.34851, 4.79675, 0, 0
19, 3000.00000, 4.34515, 4.72591, 0, 0
20, 0.00000, 4.63609, 4.97077, 0, 0
20, 600.00000, 4.56975, 4.94187, 0, 0
20, 1200.00000, 4.33237, 4.80546, 0, 0
20, 1800.00000, 4.33781, 4.74024, 0, 0
20, 2400.00000, 4.18546, 4.89999, 0, 0
20, 3000.00000, 4.25724, 4.83423, 0, 0
21, 0.00000, 3.97813, 4.72174, 0, 0
21, 600.00000, 4.00307, 4.60025, 0, 0
21, 1200.00000, 4.19809, 4.93323, 0, 0
21, 1800.00000, 4.294, 4.98986, 0, 0
21, 2400.00000, 4.62538, 5.4655, 0, 0
21, 3000.00000, 4.41933, 5.30369, 0, 0
22, 0.00000, 4.39807, 4.8974, 0, 0
22, 600.00000, 4.2753, 4.55661, 0, 0
22, 1200.00000, 4.26395, 4.64407, 0, 0
22, 1800.00000, 4.42876, 4.74779, 0, 0
22, 2400.00000, 4.42093, 5.09788, 0, 0
22, 3000.00000, 4.25708, 4.97373, 0, 0
23, 0.00000, 5.037, 5.38695, 0, 0
