hour, t(sec), V1, VAngle1, V2, VAngle2, V3, VAngle3, V4, VAngle4, I1, IAngle1, I2, IAngle2, I3, IAngle3, I4, IAngle4
0, 600.00000, 7956.8, -0.0242968, 7959.43, -120.011, 7959.76, 119.966, 0, 0, 0.118421, -82.1402, 0.11846, 157.873, 0.118465, 37.85, 0, 0
0, 1200.00000, 7956.75, -0.0259821, 7959.27, -120.011, 7959.76, 119.965, 0, 0, 0.11842, -82.1419, 0.118458, 157.873, 0.118465, 37.8494, 0, 0
0, 1800.00000, 7957.29, -0.026925, 7959.21, -120.012, 7960.11, 119.968, 0, 0, 0.118428, -82.1429, 0.118457, 157.873, 0.11847, 37.8526, 0, 0
0, 2400.00000, 7957.13, -0.0231607, 7959.37, -120.013, 7959.45, 119.967, 0, 0, 0.118425, -82.1391, 0.118459, 157.871, 0.11846, 37.8517, 0, 0
0, 3000.00000, 7957.06, -0.0225489, 7959.63, -120.011, 7959.72, 119.967, 0, 0, 0.118424, -82.1385, 0.118463, 157.873, 0.118464, 37.8509, 0, 0
1, 0.00000, 7955.99, -0.0235227, 7958.52, -120.011, 7958.71, 119.966, 0, 0, 0.118408, -82.1395, 0.118447, 157.873, 0.118449, 37.8505, 0, 0
1, 600.00000, 7955.99, -0.0242893, 7958.64, -120.009, 7959.17, 119.966, 0, 0, 0.118409, -82.1402, 0.118449, 157.875, 0.118456, 37.8507, 0, 0
1, 1200.00000, 7956.81, -0.0244467, 7959.37, -120.01, 7959.8, 119.966, 0, 0, 0.118421, -82.1404, 0.118459, 157.874, 0.118465, 37.8505, 0, 0
1, 1800.00000, 7956.77, -0.021931, 7959.7, -120.011, 7959.51, 119.965, 0, 0, 0.11842, -82.1379, 0.118464, 157.873, 0.118461, 37.849, 0, 0
1, 2400.00000, 7957.12, -0.0254198, 7959.11, -120.012, 7959.76, 119.969, 0, 0, 0.118425, -82.1413, 0.118456, 157.872, 0.118465, 37.8528, 0, 0
1, 3000.00000, 7956.89, -0.024082, 7959.38, -120.012, 7959.6, 119.966, 0, 0, 0.118422, -82.14, 0.11846, 157.872, 0.118463, 37.8503, 0, 0
2, 0.00000, 7956.79, -0.0237122, 7959.6, -120.009, 7959.98, 119.966, 0, 0, 0.11842, -82.1397, 0.118463, 157.875, 0.118468, 37.85, 0, 0
2, 600.00000, 7956.95, -0.0256401, 7959.4, -120.011, 7959.94, 119.966, 0, 0, 0.118423, -82.1416, 0.11846, 157.873, 0.118467, 37.8502, 0, 0
2, 1200.00000, 7956.58, -0.0256449, 7958.8, -120.008, 7959.77, 119.969, 0, 0, 0.118417, -82.1416, 0.118451, 157.876, 0.118465, 37.853, 0, 0
2, 1800.00000, 7955.96, -0.0230669, 7958.55, -120.009, 7958.94, 119.967, 0, 0, 0.118408, -82.139, 0.118447, 157.875, 0.118453, 37.8516, 0, 0
2, 2400.00000, 7956.78, -0.0236488, 7959.91, -120.006, 7960.45, 119.965, 0, 0, 0.11842, -82.1396, 0.118467, 157.878, 0.118475, 37.8494, 0, 0
2, 3000.00000, 7957.01, -0.0249137, 7959.29, -120.011, 7959.87, 119.967, 0, 0, 0.118424, -82.1409, 0.118458, 157.873, 0.118466, 37.8518, 0, 0
3, 0.00000, 7956.98, -0.0238125, 7959.58, -120.008, 7960.19, 119.967, 0, 0, 0.118423, -82.1397, 0.118463, 157.876, 0.118471, 37.8517, 0, 0
3, 600.00000, 7956.99, -0.0239433, 7959.81, -120.008, 7960.3, 119.966, 0, 0, 0.118423, -82.1399, 0.118466, 157.876, 0.118473, 37.8501, 0, 0
3, 1200.00000, 7956.82, -0.0259141, 7959.09, -120.01, 7959.85, 119.967, 0, 0, 0.118421, -82.1419, 0.118455, 157.874, 0.118466, 37.8516, 0, 0
3, 1800.00000, 7956.52, -0.0261846, 7959.09, -120.008, 7959.95, 119.966, 0, 0, 0.118416, -82.1421, 0.118455, 157.876, 0.118468, 37.8505, 0, 0
3, 2400.00000, 7956.45, -0.02432, 7958.88, -120.01, 7959.4, 119.967, 0, 0, 0.118415, -82.1403, 0.118452, 157.874, 0.11846, 37.8516, 0, 0
3, 3000.00000, 7956.21, -0.0261825, 7958.56, -120.008, 7959.55, 119.968, 0, 0, 0.118412, -82.1421, 0.118447, 157.876, 0.118462, 37.8519, 0, 0
4, 0.00000, 7957.29, -0.0269538, 7959.35, -120.01, 7960.42, 119.968, 0, 0, 0.118428, -82.1429, 0.118459, 157.874, 0.118475, 37.8527, 0, 0
4, 600.00000, 7957.58, -0.0247336, 7959.76, -120.011, 7960.34, 119.968, 0, 0, 0.118432, -82.1407, 0.118465, 157.873, 0.118473, 37.8525, 0, 0
4, 1200.00000, 7957.52, -0.024314, 7959.98, -120.011, 7960.31, 119.966, 0, 0, 0.118431, -82.1402, 0.118469, 157.873, 0.118473, 37.8506, 0, 0
4, 1800.00000, 7957.42, -0.027218, 7959.2, -120.011, 7960.27, 119.969, 0, 0, 0.11843, -82.1432, 0.118457, 157.873, 0.118472, 37.8536, 0, 0
4, 2400.00000, 7957.2, -0.0264726, 7959.47, -120.011, 7960.21, 119.967, 0, 0, 0.118427, -82.1424, 0.118461, 157.873, 0.118472, 37.851, 0, 0
4, 3000.00000, 7957.36, -0.0263166, 7959.74, -120.009, 7960.65, 119.967, 0, 0, 0.118429, -82.1423, 0.118465, 157.875, 0.118478, 37.8513, 0, 0
5, 0.00000, 7957.41, -0.0268915, 7959.75, -120.009, 7960.73, 119.967, 0, 0, 0.11843, -82.1428, 0.118465, 157.875, 0.118479, 37.8513, 0, 0
5, 600.00000, 7956.64, -0.0286421, 7958.45, -120.011, 7959.65, 119.968, 0, 0, 0.118418, -82.1446, 0.118446, 157.873, 0.118463, 37.8526, 0, 0
5, 1200.00000, 7957.9, -0.0243217, 7960.16, -120.011, 7960.62, 119.968, 0, 0, 0.118437, -82.1403, 0.118471, 157.873, 0.118478, 37.852, 0, 0
5, 1800.00000, 7957.54, -0.0242444, 7959.97, -120.011, 7960.36, 119.967, 0, 0, 0.118432, -82.1402, 0.118468, 157.873, 0.118474, 37.8511, 0, 0
5, 2400.00000, 7957.86, -0.0253993, 7959.49, -120.011, 7960.4, 119.971, 0, 0, 0.118436, -82.1413, 0.118461, 157.873, 0.118474, 37.8554, 0, 0
5, 3000.00000, 7957.14, -0.024986, 7959.75, -120.01, 7960.29, 119.966, 0, 0, 0.118426, -82.1409, 0.118465, 157.874, 0.118473, 37.8502, 0, 0
6, 0.00000, 7957.18, -0.0241881, 7959.95, -120.01, 7960.28, 119.965, 0, 0, 0.118426, -82.1401, 0.118468, 157.874, 0.118473, 37.8495, 0, 0
6, 600.00000, 7956.8, -0.0275834, 7959.18, -120.015, 7959.5, 119.963, 0, 0, 0.118421, -82.1435, 0.118457, 157.869, 0.118461, 37.8477, 0, 0
6, 1200.00000, 7956.92, -0.0227221, 7959.41, -120.01, 7959.68, 119.968, 0, 0, 0.118422, -82.1387, 0.11846, 157.874, 0.118464, 37.8519, 0, 0
6, 1800.00000, 7956.45, -0.0191207, 7959.53, -120.011, 7958.95, 119.965, 0, 0, 0.118415, -82.1351, 0.118462, 157.873, 0.118453, 37.8494, 0, 0
6, 2400.00000, 7957.25, -0.0189154, 7960.28, -120.013, 7959.5, 119.965, 0, 0, 0.118427, -82.1348, 0.118473, 157.871, 0.118461, 37.8491, 0, 0
6, 3000.00000, 7956.72, -0.0224734, 7959.49, -120.014, 7959.08, 119.964, 0, 0, 0.118419, -82.1384, 0.118461, 157.87, 0.118455, 37.8481, 0, 0
7, 0.00000, 7957.02, -0.0217607, 7959.66, -120.012, 7959.56, 119.966, 0, 0, 0.118424, -82.1377, 0.118464, 157.872, 0.118462, 37.8507, 0, 0
7, 600.00000, 7956.14, -0.0247852, 7959.3, -120.014, 7959.06, 119.96, 0, 0, 0.118411, -82.1407, 0.118458, 157.87, 0.118454, 37.8448, 0, 0
7, 1200.00000, 7955.42, -0.0293264, 7958.19, -120.018, 7958.2, 119.959, 0, 0, 0.1184, -82.1453, 0.118442, 157.866, 0.118442, 37.8429, 0, 0
7, 1800.00000, 7953.02, -0.0389877, 7956.09, -120.022, 7956.57, 119.95, 0, 0, 0.118364, -82.155, 0.118411, 157.862, 0.118417, 37.8339, 0, 0
7, 2400.00000, 7952.22, -0.0445075, 7955.18, -120.03, 7955.49, 119.944, 0, 0, 0.118352, -82.1605, 0.118397, 157.854, 0.118401, 37.8281, 0, 0
7, 3000.00000, 7949.95, -0.0536481, 7953.52, -120.04, 7953.36, 119.93, 0, 0, 0.118318, -82.1696, 0.118372, 157.844, 0.11837, 37.8144, 0, 0
8, 0.00000, 7948.55, -0.0599665, 7952.02, -120.045, 7952.08, 119.925, 0, 0, 0.118298, -82.1759, 0.11835, 157.839, 0.118351, 37.8094, 0, 0
8, 600.00000, 7946.6, -0.0642148, 7951.21, -120.05, 7950.58, 119.913, 0, 0, 0.118269, -82.1802, 0.118338, 157.834, 0.118328, 37.7975, 0, 0
8, 1200.00000, 7945.95, -0.0725522, 7950.1, -120.054, 7950.28, 119.91, 0, 0, 0.118259, -82.1885, 0.118322, 157.83, 0.118324, 37.7945, 0, 0
8, 1800.00000, 7944.84, -0.0854768, 7947.84, -120.064, 7948.89, 119.905, 0, 0, 0.118242, -82.2015, 0.118288, 157.82, 0.118303, 37.79, 0, 0
8, 2400.00000, 7942.59, -0.0959335, 7944.93, -120.077, 7946, 119.898, 0, 0, 0.118209, -82.2119, 0.118245, 157.807, 0.11826, 37.7823, 0, 0
8, 3000.00000, 7941.38, -0.111107, 7943.55, -120.086, 7945.47, 119.887, 0, 0, 0.118191, -82.2271, 0.118224, 157.798, 0.118252, 37.7713, 0, 0
9, 0.00000, 7940.46, -0.123819, 7941.89, -120.097, 7944.35, 119.879, 0, 0, 0.118177, -82.2398, 0.1182, 157.787, 0.118236, 37.764, 0, 0
9, 600.00000, 7937.69, -0.132712, 7941.38, -120.1, 7943.45, 119.859, 0, 0, 0.118136, -82.2487, 0.118192, 157.784, 0.118222, 37.7439, 0, 0
9, 1200.00000, 7935.01, -0.146, 7939.64, -120.103, 7942.52, 119.846, 0, 0, 0.118096, -82.262, 0.118166, 157.781, 0.118208, 37.7301, 0, 0
9, 1800.00000, 7934.54, -0.158199, 7938.96, -120.112, 7942.27, 119.836, 0, 0, 0.118089, -82.2742, 0.118156, 157.772, 0.118205, 37.7206, 0, 0
9, 2400.00000, 7934.25, -0.166571, 7937.73, -120.123, 7941.14, 119.832, 0, 0, 0.118084, -82.2826, 0.118138, 157.76, 0.118188, 37.7165, 0, 0
9, 3000.00000, 7933.42, -0.175893, 7936.23, -120.136, 7939.63, 119.825, 0, 0, 0.118072, -82.2919, 0.118115, 157.748, 0.118165, 37.71, 0, 0
10, 0.00000, 7932.35, -0.185606, 7935, -120.142, 7938.92, 119.818, 0, 0, 0.118056, -82.3016, 0.118097, 157.742, 0.118155, 37.7031, 0, 0
10, 600.00000, 7931.58, -0.191565, 7934.92, -120.143, 7939.04, 119.81, 0, 0, 0.118045, -82.3076, 0.118096, 157.741, 0.118157, 37.6951, 0, 0
10, 1200.00000, 7931.32, -0.191217, 7934.19, -120.15, 7937.68, 119.81, 0, 0, 0.118041, -82.3072, 0.118085, 157.734, 0.118137, 37.6948, 0, 0
10, 1800.00000, 7932, -0.195352, 7934.53, -120.151, 7938.52, 119.809, 0, 0, 0.118051, -82.3114, 0.11809, 157.733, 0.118149, 37.6941, 0, 0
10, 2400.00000, 7931.45, -0.199797, 7933.36, -120.152, 7938.09, 119.811, 0, 0, 0.118043, -82.3158, 0.118073, 157.732, 0.118142, 37.6953, 0, 0
10, 3000.00000, 7931.17, -0.201605, 7933.56, -120.148, 7938.83, 119.809, 0, 0, 0.118039, -82.3177, 0.118076, 157.736, 0.118153, 37.6937, 0, 0
11, 0.00000, 7930.44, -0.202096, 7932.46, -120.15, 7937.66, 119.81, 0, 0, 0.118028, -82.3182, 0.118059, 157.734, 0.118136, 37.6944, 0, 0
11, 600.00000, 7928.78, -0.204434, 7932.06, -120.148, 7937.18, 119.802, 0, 0, 0.118003, -82.3205, 0.118054, 157.736, 0.118129, 37.6864, 0, 0
11, 1200.00000, 7927.82, -0.207526, 7931.18, -120.148, 7936.63, 119.8, 0, 0, 0.117989, -82.3236, 0.11804, 157.736, 0.118121, 37.6843, 0, 0
11, 1800.00000, 7929, -0.20797, 7932.01, -120.147, 7937.82, 119.802, 0, 0, 0.118006, -82.3241, 0.118053, 157.737, 0.118138, 37.6869, 0, 0
11, 2400.00000, 7928.19, -0.204698, 7931.81, -120.145, 7937.2, 119.801, 0, 0, 0.117994, -82.3208, 0.11805, 157.739, 0.118129, 37.6857, 0, 0
11, 3000.00000, 7928.68, -0.206629, 7931.37, -120.151, 7936.68, 119.803, 0, 0, 0.118001, -82.3227, 0.118043, 157.733, 0.118121, 37.6874, 0, 0
12, 0.00000, 7928.88, -0.201288, 7931.98, -120.154, 7936.1, 119.801, 0, 0, 0.118004, -82.3174, 0.118052, 157.73, 0.118113, 37.6861, 0, 0
12, 600.00000, 7927.55, -0.211929, 7930.58, -120.159, 7935.56, 119.794, 0, 0, 3.403, -3.30913, 3.40294, -123.309, 3.40298, 116.692, 0, 0
12, 1200.00000, 7927.96, -0.209176, 7930.41, -120.157, 7935.51, 119.8, 0, 0, 3.44685, -9.51134, 3.44678, -129.511, 3.44682, 110.49, 0, 0
12, 1800.00000, 7928.25, -0.205166, 7931.38, -120.148, 7936.82, 119.802, 0, 0, 3.46485, -9.79941, 3.46478, -129.799, 3.46481, 110.202, 0, 0
12, 2400.00000, 7927.12, -0.215258, 7928.7, -120.161, 7934.55, 119.8, 0, 0, 3.46597, -9.82862, 3.4659, -129.829, 3.46592, 110.172, 0, 0
12, 3000.00000, 7926.83, -0.214625, 7930.29, -120.154, 7935.92, 119.792, 0, 0, 3.47514, -9.46161, 3.47506, -129.462, 3.4751, 110.539, 0, 0
13, 0.00000, 7927.69, -0.208838, 7931.72, -120.144, 7937.53, 119.796, 0, 0, 3.45958, -9.78526, 3.45952, -129.785, 3.45954, 110.216, 0, 0
13, 600.00000, 7927.88, -0.207754, 7932.42, -120.138, 7938.64, 119.797, 0, 0, 3.47415, -9.57877, 3.47408, -129.579, 3.47411, 110.422, 0, 0
13, 1200.00000, 7927.33, -0.208485, 7931.78, -120.139, 7938, 119.797, 0, 0, 3.44372, -9.23007, 3.44363, -129.23, 3.44368, 110.771, 0, 0
13, 1800.00000, 7927.86, -0.209232, 7931.98, -120.145, 7937.77, 119.796, 0, 0, 3.43441, -9.09205, 3.43431, -129.092, 3.43436, 110.909, 0, 0
13, 2400.00000, 7928.01, -0.206485, 7932.18, -120.145, 7937.52, 119.796, 0, 0, 3.42931, -9.09508, 3.42923, -129.095, 3.42927, 110.906, 0, 0
13, 3000.00000, 7928.59, -0.207539, 7932.02, -120.144, 7938.02, 119.801, 0, 0, 3.4345, -9.25859, 3.43443, -129.259, 3.43446, 110.742, 0, 0
14, 0.00000, 7929.47, -0.194404, 7933.69, -120.143, 7937.8, 119.803, 0, 0, 3.43173, -9.38244, 3.43164, -129.383, 3.43166, 110.619, 0, 0
14, 600.00000, 7933.1, -0.176378, 7938.03, -120.132, 7940.94, 119.814, 0, 0, 0.118067, -82.2925, 0.118142, 157.752, 0.118185, 37.6984, 0, 0
14, 1200.00000, 7933.59, -0.168645, 7939.16, -120.118, 7942.43, 119.82, 0, 0, 0.118075, -82.2848, 0.118159, 157.766, 0.118207, 37.7049, 0, 0
14, 1800.00000, 7933.96, -0.168836, 7938.5, -120.114, 7942.78, 119.829, 0, 0, 0.11808, -82.2849, 0.118149, 157.77, 0.118212, 37.7133, 0, 0
14, 2400.00000, 7933.61, -0.171164, 7937.89, -120.117, 7942.24, 119.828, 0, 0, 0.118075, -82.2873, 0.11814, 157.767, 0.118204, 37.7123, 0, 0
14, 3000.00000, 7932.46, -0.171228, 7937.57, -120.113, 7942.08, 119.825, 0, 0, 0.118058, -82.2873, 0.118135, 157.771, 0.118202, 37.7095, 0, 0
15, 0.00000, 7932.17, -0.171418, 7937.37, -120.112, 7941.95, 119.825, 0, 0, 0.118053, -82.2875, 0.118132, 157.772, 0.1182, 37.7093, 0, 0
15, 600.00000, 7932.23, -0.171547, 7937.88, -120.111, 7942.36, 119.822, 0, 0, 0.118055, -82.2876, 0.11814, 157.773, 0.118206, 37.7069, 0, 0
15, 1200.00000, 7931.95, -0.174323, 7935.81, -120.116, 7940.88, 119.829, 0, 0, 0.11805, -82.2904, 0.118109, 157.768, 0.118184, 37.714, 0, 0
15, 1800.00000, 7932.25, -0.178384, 7936.2, -120.115, 7941.85, 119.827, 0, 0, 0.118055, -82.2944, 0.118115, 157.769, 0.118198, 37.7121, 0, 0
15, 2400.00000, 7933.76, -0.172574, 7937.89, -120.12, 7942.19, 119.827, 0, 0, 0.118077, -82.2886, 0.11814, 157.764, 0.118203, 37.7115, 0, 0
15, 3000.00000, 7934.26, -0.16217, 7940.04, -120.114, 7942.87, 119.824, 0, 0, 0.118085, -82.2782, 0.118172, 157.77, 0.118214, 37.709, 0, 0
16, 0.00000, 7935.68, -0.160032, 7940.76, -120.115, 7943.68, 119.83, 0, 0, 0.118106, -82.2761, 0.118183, 157.769, 0.118226, 37.7144, 0, 0
16, 600.00000, 7937.07, -0.14985, 7942.83, -120.103, 7945.63, 119.837, 0, 0, 0.118127, -82.2659, 0.118214, 157.781, 0.118255, 37.7212, 0, 0
16, 1200.00000, 7937.25, -0.144491, 7942.5, -120.099, 7945.35, 119.844, 0, 0, 0.118129, -82.2605, 0.118209, 157.785, 0.11825, 37.729, 0, 0
16, 1800.00000, 7939.25, -0.138382, 7943.3, -120.093, 7946.79, 119.858, 0, 0, 0.118159, -82.2544, 0.118221, 157.791, 0.118272, 37.7427, 0, 0
16, 2400.00000, 7939.44, -0.127622, 7944.2, -120.085, 7946.99, 119.863, 0, 0, 0.118162, -82.2437, 0.118234, 157.799, 0.118275, 37.7476, 0, 0
16, 3000.00000, 7940.26, -0.124237, 7944.75, -120.08, 7947.89, 119.869, 0, 0, 0.118174, -82.2403, 0.118242, 157.804, 0.118288, 37.7536, 0, 0
17, 0.00000, 7941.11, -0.116014, 7946.07, -120.07, 7949.14, 119.875, 0, 0, 0.118187, -82.2321, 0.118262, 157.814, 0.118307, 37.7595, 0, 0
17, 600.00000, 7941.11, -0.109732, 7946.81, -120.063, 7949.54, 119.877, 0, 0, 0.118187, -82.2258, 0.118273, 157.821, 0.118313, 37.7614, 0, 0
17, 1200.00000, 7942.47, -0.104122, 7948.13, -120.054, 7951.3, 119.884, 0, 0, 0.118207, -82.2202, 0.118292, 157.83, 0.118339, 37.7689, 0, 0
17, 1800.00000, 7943.93, -0.0974464, 7949.57, -120.05, 7952.48, 119.89, 0, 0, 0.118229, -82.2135, 0.118314, 157.834, 0.118356, 37.7747, 0, 0
17, 2400.00000, 7945.69, -0.0962451, 7949.67, -120.045, 7953.83, 119.904, 0, 0, 0.118255, -82.2123, 0.118315, 157.839, 0.118377, 37.788, 0, 0
17, 3000.00000, 7946.39, -0.0925579, 7950.16, -120.041, 7954.44, 119.909, 0, 0, 0.118265, -82.2086, 0.118323, 157.843, 0.118386, 37.7931, 0, 0
18, 0.00000, 7947.32, -0.0885153, 7950.61, -120.039, 7954.94, 119.915, 0, 0, 0.118279, -82.2045, 0.118329, 157.845, 0.118393, 37.7994, 0, 0
18, 600.00000, 7948.4, -0.0829171, 7951.3, -120.04, 7955.09, 119.92, 0, 0, 0.118295, -82.199, 0.118339, 157.845, 0.118395, 37.8043, 0, 0
18, 1200.00000, 7950.48, -0.0748529, 7952.43, -120.034, 7956.38, 119.933, 0, 0, 0.118326, -82.1909, 0.118356, 157.85, 0.118414, 37.8171, 0, 0
18, 1800.00000, 7951.08, -0.0702083, 7952.87, -120.036, 7956.09, 119.935, 0, 0, 0.118335, -82.1862, 0.118363, 157.848, 0.11841, 37.8194, 0, 0
18, 2400.00000, 7952.13, -0.0662132, 7953.71, -120.037, 7956.51, 119.938, 0, 0, 0.118351, -82.1822, 0.118375, 157.848, 0.118416, 37.8225, 0, 0
18, 3000.00000, 7953.89, -0.0534606, 7955.43, -120.038, 7956.58, 119.944, 0, 0, 0.118377, -82.1694, 0.118401, 157.846, 0.118417, 37.8286, 0, 0
19, 0.00000, 7955.66, -0.0461416, 7956.8, -120.028, 7958.44, 119.955, 0, 0, 0.118404, -82.1621, 0.118421, 157.856, 0.118445, 37.8397, 0, 0
19, 600.00000, 7954.89, -0.0484007, 7956.33, -120.024, 7958.57, 119.954, 0, 0, 0.118392, -82.1644, 0.118414, 157.86, 0.118447, 37.8387, 0, 0
19, 1200.00000, 7955.32, -0.0432866, 7956.88, -120.023, 7958.59, 119.957, 0, 0, 0.118398, -82.1592, 0.118422, 157.861, 0.118447, 37.8411, 0, 0
19, 1800.00000, 7954.76, -0.0435862, 7956.61, -120.022, 7958.26, 119.955, 0, 0, 0.11839, -82.1595, 0.118418, 157.862, 0.118442, 37.8393, 0, 0
19, 2400.00000, 7954.69, -0.0436351, 7956.73, -120.02, 7958.55, 119.955, 0, 0, 0.118389, -82.1596, 0.11842, 157.864, 0.118447, 37.8392, 0, 0
19, 3000.00000, 7954.8, -0.0459258, 7956.18, -120.02, 7958.6, 119.958, 0, 0, 0.118391, -82.1619, 0.118412, 157.864, 0.118448, 37.8422, 0, 0
20, 0.00000, 7954.11, -0.0440282, 7956.08, -120.022, 7957.8, 119.954, 0, 0, 0.118381, -82.16, 0.11841, 157.863, 0.118436, 37.8387, 0, 0
20, 600.00000, 7954.9, -0.0429142, 7956.53, -120.02, 7958.51, 119.958, 0, 0, 0.118392, -82.1589, 0.118417, 157.864, 0.118446, 37.8424, 0, 0
20, 1200.00000, 7954.19, -0.0456441, 7955.8, -120.019, 7958.25, 119.957, 0, 0, 0.118382, -82.1616, 0.118406, 157.865, 0.118442, 37.8416, 0, 0
20, 1800.00000, 7955.19, -0.0423585, 7956.75, -120.017, 7959, 119.96, 0, 0, 0.118397, -82.1583, 0.11842, 157.867, 0.118453, 37.8443, 0, 0
20, 2400.00000, 7954.58, -0.0414336, 7956.63, -120.017, 7958.57, 119.958, 0, 0, 0.118387, -82.1574, 0.118419, 157.867, 0.118447, 37.8418, 0, 0
20, 3000.00000, 7955.17, -0.0400831, 7956.9, -120.015, 7959.02, 119.961, 0, 0, 0.118396, -82.156, 0.118423, 157.869, 0.118454, 37.8453, 0, 0
21, 0.00000, 7955.22, -0.0429039, 7956.71, -120.016, 7959.16, 119.961, 0, 0, 0.118397, -82.1589, 0.11842, 157.868, 0.118456, 37.8449, 0, 0
21, 600.00000, 7954.99, -0.0415042, 7956.72, -120.014, 7959.17, 119.961, 0, 0, 0.118394, -82.1575, 0.11842, 157.87, 0.118456, 37.8453, 0, 0
21, 1200.00000, 7955.88, -0.0385523, 7957.04, -120.017, 7959.02, 119.964, 0, 0, 0.118407, -82.1545, 0.118425, 157.867, 0.118454, 37.8487, 0, 0
21, 1800.00000, 7955.67, -0.0386516, 7956.53, -120.021, 7958.19, 119.964, 0, 0, 0.118404, -82.1546, 0.118417, 157.863, 0.118441, 37.8485, 0, 0
21, 2400.00000, 7955.63, -0.0400468, 7957.19, -120.016, 7959.36, 119.962, 0, 0, 0.118403, -82.156, 0.118427, 157.868, 0.118459, 37.8463, 0, 0
21, 3000.00000, 7955.52, -0.0382991, 7957, -120.017, 7958.79, 119.962, 0, 0, 0.118402, -82.1542, 0.118424, 157.867, 0.11845, 37.8468, 0, 0
22, 0.00000, 7955.91, -0.0364962, 7957.35, -120.017, 7958.98, 119.964, 0, 0, 0.118407, -82.1524, 0.118429, 157.867, 0.118453, 37.8481, 0, 0
22, 600.00000, 7955.25, -0.0415365, 7956.56, -120.019, 7958.65, 119.961, 0, 0, 0.118398, -82.1575, 0.118418, 157.865, 0.118448, 37.8455, 0, 0
22, 1200.00000, 7956.12, -0.0377805, 7957.39, -120.016, 7959.42, 119.965, 0, 0, 0.11841, -82.1537, 0.11843, 157.868, 0.11846, 37.8492, 0, 0
22, 1800.00000, 7955.71, -0.038899, 7957.03, -120.018, 7958.95, 119.963, 0, 0, 0.118404, -82.1548, 0.118425, 157.867, 0.118453, 37.8474, 0, 0
22, 2400.00000, 7955.32, -0.0418958, 7956.27, -120.02, 7958.48, 119.963, 0, 0, 0.118399, -82.1578, 0.118413, 157.864, 0.118446, 37.8472, 0, 0
22, 3000.00000, 7955.84, -0.0355161, 7957.71, -120.016, 7959.14, 119.962, 0, 0, 0.118406, -82.1515, 0.118435, 157.868, 0.118456, 37.8465, 0, 0
23, 0.00000, 7955.83, -0.0382331, 7957.17, -120.017, 7959.08, 119.964, 0, 0, 0.118406, -82.1542, 0.118427, 157.867, 0.118455, 37.848, 0, 0
23, 600.00000, 7955.76, -0.0365697, 7957.3, -120.017, 7958.85, 119.963, 0, 0, 0.118405, -82.1525, 0.118429, 157.867, 0.118451, 37.8473, 0, 0
23, 1200.00000, 7954.82, -0.0387721, 7956.69, -120.02, 7958.05, 119.958, 0, 0, 0.118391, -82.1547, 0.11842, 157.864, 0.118439, 37.8428, 0, 0
23, 1800.00000, 7955.65, -0.0367913, 7957.35, -120.017, 7958.88, 119.962, 0, 0, 0.118403, -82.1527, 0.118429, 157.867, 0.118452, 37.8463, 0, 0
23, 2400.00000, 7955.16, -0.0390664, 7956.83, -120.016, 7958.82, 119.962, 0, 0, 0.118396, -82.155, 0.118422, 157.868, 0.118451, 37.846, 0, 0
