hour, t(sec), P1 (kW), Q1 (kvar), P2 (kW), Q2 (kvar), P3 (kW), Q3 (kvar)
0, 600.00000, 39.3294, 24.6463, 24.8234, 4.15851, 49.8302, 1.83713
0, 1200.00000, 40.9343, 24.9926, 27.3088, 6.67022, 50.0004, 4.02905
0, 1800.00000, 39.1175, 25.0914, 26.6817, 6.1056, 49.3525, 4.8263
0, 2400.00000, 41.026, 25.1674, 26.6237, 6.14949, 50.3054, 3.18252
0, 3000.00000, 39.6472, 25.923, 25.1905, 7.15196, 48.6858, 4.01457
1, 0.00000, 39.4227, 22.8628, 23.8419, 5.4132, 46.7548, 0.641324
1, 600.00000, 39.4671, 27.154, 28.1934, 3.42723, 54.3896, 5.52351
1, 1200.00000, 37.7957, 21.7638, 23.5061, 5.47662, 44.7668, 1.24256
1, 1800.00000, 38.9076, 23.0594, 23.2102, 6.15088, 45.7129, 1.00767
1, 2400.00000, 42.2166, 27.8868, 27.3445, 5.44049, 54.2305, 3.78073
1, 3000.00000, 41.2528, 24.3365, 26.5027, 6.46135, 49.3689, 2.62222
2, 0.00000, 39.1378, 21.9366, 23.7672, 7.2152, 44.2127, 1.26205
2, 600.00000, 42.0021, 25.0879, 26.0471, 7.41088, 49.3447, 2.42967
2, 1200.00000, 39.8035, 22.2244, 24.3631, 6.48968, 45.7207, 0.983773
2, 1800.00000, 41.3706, 22.7623, 27.2886, 9.50404, 45.8228, 3.93565
2, 2400.00000, 39.0541, 21.2543, 23.7459, 9.89716, 41.2471, 2.31645
2, 3000.00000, 36.7423, 19.2294, 20.9389, 7.29779, 39.1839, -0.4245
3, 0.00000, 42.5201, 25.8572, 26.7852, 8.84828, 49.3938, 3.7234
3, 600.00000, 38.6872, 24.1171, 23.7441, 9.97656, 43.4728, 4.104
3, 1200.00000, 37.3169, 19.1058, 21.5089, 8.24675, 38.8274, -0.0150912
3, 1800.00000, 40.6365, 23.1526, 24.5206, 9.4954, 44.4172, 2.36588
3, 2400.00000, 45.9081, 22.0511, 27.0472, 10.034, 46.8965, -0.293809
3, 3000.00000, 37.0627, 20.82, 24.3899, 7.08106, 42.6349, 2.97439
4, 0.00000, 38.9611, 21.4241, 22.6041, 9.18517, 41.392, 1.13825
4, 600.00000, 38.7936, 19.7019, 22.1394, 7.72384, 40.8499, -0.711603
4, 1200.00000, 40.3809, 24.2115, 25.5714, 5.84916, 48.8893, 2.20261
4, 1800.00000, 38.4742, 18.9038, 22.1692, 9.86852, 38.1565, 0.264946
4, 2400.00000, 38.6035, 19.0948, 22.049, 9.54996, 38.6027, -0.0153516
4, 3000.00000, 41.9493, 23.3911, 24.3774, 8.52583, 46.0483, 0.739187
5, 0.00000, 38.5678, 23.2511, 22.3691, 5.63555, 45.7347, 0.413042
5, 600.00000, 39.5264, 20.1745, 25.327, 9.15592, 41.9793, 2.3672
5, 1200.00000, 38.7015, 20.4218, 24.4623, 9.63259, 40.9358, 2.69431
5, 1800.00000, 37.6011, 20.8365, 21.2869, 6.55641, 41.821, -0.433998
5, 2400.00000, 38.7373, 21.8888, 25.1455, 4.47932, 47.0279, 1.41142
5, 3000.00000, 36.8024, 20.662, 22.2201, 8.51142, 40.0445, 1.9566
6, 0.00000, 38.2656, 20.6357, 22.3596, 9.86661, 39.6498, 1.47435
6, 600.00000, 40.8983, 25.0775, 25.2383, 8.88362, 47.1037, 3.41624
6, 1200.00000, 37.3209, 21.6361, 21.0361, 5.08614, 43.5219, -0.744515
6, 1800.00000, 36.992, 19.9941, 21.2878, 10.3069, 37.5403, 1.54766
6, 2400.00000, 35.3266, 22.3223, 21.4412, 7.3332, 41.3755, 2.79957
6, 3000.00000, 29.8936, 17.7892, 16.1436, 1.1753, 37.416, -2.42833
7, 0.00000, 31.3997, 18.0863, 18.3402, 0.473944, 40.1322, -2.03243
7, 600.00000, 35.511, 18.0269, 20.246, 7.69556, 36.837, -0.360995
7, 1200.00000, 30.7322, 11.7467, 1.5003, 3.00985, 32.0784, -3.36042
7, 1800.00000, 76.6942, 21.0219, 65.208, 5.4703, 83.996, 2.08612
7, 2400.00000, 91.5107, 29.4941, 72.9512, 7.23702, 99.632, -1.4124
7, 3000.00000, 106.866, 35.5165, 82.7082, 11.9472, 113.391, -0.928896
8, 0.00000, 131.676, 47.0341, 105.822, 19.8778, 142.157, 10.3523
8, 600.00000, 133.343, 47.4901, 110.912, 16.5231, 147.483, 9.32523
8, 1200.00000, 137.958, 47.8679, 110.925, 11.9762, 154.855, 4.69633
8, 1800.00000, 147.759, 46.1184, 109.09, 17.4934, 154.283, 0.257939
8, 2400.00000, 154.021, 48.4512, 118.462, 12.9939, 168.306, 3.20018
8, 3000.00000, 167.973, 59.6963, 132.479, 9.47266, 195.343, 6.70396
9, 0.00000, 185.105, 46.0557, 155.116, 13.1627, 199.409, 5.16143
9, 600.00000, 213.337, 57.0087, 176.196, 16.9625, 229.792, 4.91531
9, 1200.00000, 234.042, 73.9855, 185.856, 16.2869, 257.728, -1.59304
9, 1800.00000, 265.411, 72.8253, 205.748, 26.6995, 274.468, -4.82962
9, 2400.00000, 258.3, 62.1186, 203.881, 20.961, 266.243, -7.47838
9, 3000.00000, 274.564, 59.922, 229.927, 21.3619, 286.078, 2.30471
10, 0.00000, 268.4, 61.1506, 226.969, 17.9593, 283.736, 0.285875
10, 600.00000, 275.481, 62.86, 228.276, 19.6393, 290.619, 2.97642
10, 1200.00000, 278.835, 59.6939, 236.15, 24.1087, 287.414, 2.31423
10, 1800.00000, 283.133, 62.4577, 240.585, 19.2549, 300.608, 6.01185
10, 2400.00000, 274.492, 60.3847, 234.14, 12.7389, 296.316, 3.52495
10, 3000.00000, 284.707, 59.1194, 247.072, 14.3079, 303.62, 1.10701
11, 0.00000, 222.902, 49.4895, 184.483, 6.42268, 241.128, -5.33067
11, 600.00000, 217.018, 48.6046, 189.39, 7.65158, 238.814, 4.18081
11, 1200.00000, 216.345, 54.2646, 158.439, 3.62209, 243.921, 0.507023
11, 1800.00000, 292.059, 59.2958, 262.139, 13.1952, 316.588, 8.48557
11, 2400.00000, 271.049, 54.3136, 238.804, 14.3685, 286.902, 0.869558
11, 3000.00000, 288.741, 66.3876, 244.087, 20.2768, 303.817, -0.929406
12, 0.00000, 288.965, 64.4302, 234.493, 18.387, 301.572, -6.83788
12, 600.00000, 299.351, 72.5718, 251.867, 28.0625, 312.082, 4.3528
12, 1200.00000, 301.082, 66.4273, 248.155, 27.7289, 307.223, -1.42378
12, 1800.00000, 279.825, 51.0748, 225.899, 21.0512, 280.546, -7.69433
12, 2400.00000, 302.91, 65.1152, 248.827, 24.2346, 313.388, 2.76395
12, 3000.00000, 306.599, 72.8377, 251.955, 26.7418, 321.709, 6.75748
13, 0.00000, 302.143, 63.0496, 254.015, 28.8068, 309.009, 6.5334
13, 600.00000, 284.885, 53.2749, 228.274, 33.1176, 274.573, -5.64598
13, 1200.00000, 284.287, 62.4697, 221.702, 38.2926, 270.648, -11.2417
13, 1800.00000, 299.295, 65.3327, 238.579, 42.1568, 287.355, -3.14874
13, 2400.00000, 292.079, 60.8525, 226.205, 43.4823, 273.386, -7.67007
13, 3000.00000, 284.673, 60.4322, 215.549, 34.729, 272.938, -11.776
14, 0.00000, 257.193, 55.6894, 197.242, 33.4684, 244.305, -12.3996
14, 600.00000, 254.967, 64.1567, 194.136, 20.5834, 264.084, -6.40515
14, 1200.00000, 226.477, 57.658, 185.014, 8.41407, 246.87, -6.83378
14, 1800.00000, 217.647, 61.1071, 165.906, 11.0903, 236.885, -5.70893
14, 2400.00000, 237.666, 53.2432, 196.382, 18.1636, 248.32, 2.80071
14, 3000.00000, 245.95, 62.4706, 205.216, 18.4504, 261.908, 0.604151
15, 0.00000, 202.286, 62.8746, 144.731, 24.6969, 206.671, -6.11272
15, 600.00000, 210.144, 71.5279, 141.688, 24.4454, 216.797, -11.3552
15, 1200.00000, 179.411, 59.621, 91.0335, 17.1331, 180.468, -23.6793
15, 1800.00000, 244.256, 66.2291, 196.872, 34.4416, 247.805, 8.04367
15, 2400.00000, 241.866, 66.2741, 191.24, 29.8131, 246.368, 0.45623
15, 3000.00000, 242.685, 72.1381, 189.984, 18.3165, 261.244, -4.22282
16, 0.00000, 242.899, 73.3005, 186.157, 20.8633, 259.928, -2.84084
16, 600.00000, 237.284, 72.8617, 186.038, 18.6259, 257.253, -1.95012
16, 1200.00000, 228.158, 73.1759, 175.094, 18.0861, 248.716, -2.19941
16, 1800.00000, 182.495, 49.7709, 144.591, 8.28119, 200.541, -1.88864
16, 2400.00000, 167.295, 44.8005, 127.537, 7.34972, 181.193, -5.10278
16, 3000.00000, 177.43, 54.2658, 146.709, 14.3708, 198.211, 10.5553
17, 0.00000, 176.204, 40.6684, 142.286, 16.3089, 181.124, 0.614851
17, 600.00000, 166.639, 52.8795, 122.005, 13.7153, 178.517, -5.28097
17, 1200.00000, 150.817, 51.6514, 120.492, 14.579, 165.446, 1.86035
17, 1800.00000, 134.022, 38.0628, 99.0326, 10.3687, 139.298, -8.99439
17, 2400.00000, 145.143, 40.4426, 103.468, 17.6798, 143.403, -8.89754
17, 3000.00000, 139.902, 34.977, 94.7737, 19.6761, 130.899, -11.4019
18, 0.00000, 128.692, 41.8942, 101.522, 16.7171, 135.404, 2.41839
18, 600.00000, 125.872, 35.4334, 92.9598, 17.1906, 126.364, 0.487394
18, 1200.00000, 114.963, 31.836, 89.2352, 17.6668, 113.3, -0.0971419
18, 1800.00000, 116.835, 30.8439, 84.1981, 17.2322, 113.464, -2.1486
18, 2400.00000, 114.232, 34.5342, 87.0859, 19.1487, 114.531, 5.30764
18, 3000.00000, 101.462, 29.6285, 85.384, 20.5368, 100.005, 8.17758
19, 0.00000, 45.5384, 25.1693, 30.1131, 10.4186, 50.6089, 4.43429
19, 600.00000, 39.7184, 20.2724, 24.6231, 9.05644, 41.894, 1.59105
19, 1200.00000, 40.7329, 24.5498, 27.2861, 6.68183, 49.4943, 3.96891
19, 1800.00000, 39.1567, 23.683, 26.9603, 8.91996, 45.8545, 5.73774
19, 2400.00000, 39.6087, 21.711, 25.5499, 7.06774, 45.2719, 2.21243
19, 3000.00000, 39.8841, 23.2707, 26.6041, 9.22584, 45.4187, 4.74665
20, 0.00000, 41.5209, 23.412, 24.5162, 13.6101, 41.5188, 3.78378
20, 600.00000, 45.9769, 28.3552, 32.2961, 11.8995, 53.3999, 8.27786
20, 1200.00000, 44.1038, 27.2269, 26.7799, 11.5648, 49.0178, 4.39247
20, 1800.00000, 46.3968, 28.2036, 27.6506, 15.065, 48.4148, 5.39937
20, 2400.00000, 42.2687, 24.2394, 23.7208, 14.2838, 41.6288, 3.19809
20, 3000.00000, 45.8563, 26.071, 29.2728, 12.6028, 49.2411, 4.97421
21, 0.00000, 44.1814, 27.9447, 26.2386, 12.0511, 48.9866, 4.45861
21, 600.00000, 42.7539, 23.3466, 23.7643, 13.036, 42.2001, 1.74572
21, 1200.00000, 40.4293, 23.9525, 25.7703, 12.8984, 42.6835, 5.73002
21, 1800.00000, 42.2543, 22.2723, 26.4202, 12.2158, 43.0563, 3.53049
21, 2400.00000, 43.8853, 25.9037, 27.5176, 11.4062, 48.2677, 4.47931
21, 3000.00000, 41.4406, 22.38, 23.4998, 13.7654, 39.9414, 2.53501
22, 0.00000, 44.8537, 25.1907, 27.7288, 14.1876, 45.8314, 4.85768
22, 600.00000, 40.7355, 23.4385, 25.944, 13.0225, 42.371, 5.42038
22, 1200.00000, 43.242, 23.8617, 24.7078, 13.8065, 42.6941, 2.78267
22, 1800.00000, 40.3161, 23.784, 23.0921, 13.5323, 40.5932, 3.74155
22, 2400.00000, 49.515, 25.5391, 30.8706, 16.1375, 48.3466, 4.6918
22, 3000.00000, 43.7486, 26.7797, 29.6539, 12.8053, 48.815, 7.5852
23, 0.00000, 40.2497, 20.9711, 23.45, 12.2603, 39.4045, 2.06624
23, 600.00000, 41.0499, 23.1687, 24.6474, 13.5707, 41.1715, 4.16402
23, 1200.00000, 44.1351, 25.8877, 29.3408, 14.8031, 46.3487, 7.53147
23, 1800.00000, 48.3158, 27.4305, 31.4513, 14.154, 51.3936, 6.18496
23, 2400.00000, 43.1388, 21.5074, 27.1004, 12.0144, 43.3522, 2.87006
23, 3000.00000, 42.3356, 20.7444, 25.2182, 12.3491, 41.0578, 1.72169
24, 0.00000, 41.4098, 24.0373, 30.1304, 9.41027, 48.4484, 6.953
