hour, t(sec), V1, VAngle1, V2, VAngle2, I1, IAngle1, I2, IAngle2
0, 600.00000, 7966.31, 119.98, 0, 0, 0, 0, 0, 0
0, 1200.00000, 7966.29, 119.98, 0, 0, 0, 0, 0, 0
0, 1800.00000, 7966.32, 119.98, 0, 0, 0, 0, 0, 0
0, 2400.00000, 7966.25, 119.98, 0, 0, 0, 0, 0, 0
0, 3000.00000, 7966.29, 119.98, 0, 0, 0, 0, 0, 0
1, 0.00000, 7966.28, 119.98, 0, 0, 0, 0, 0, 0
1, 600.00000, 7966.13, 119.979, 0, 0, 0, 0, 0, 0
1, 1200.00000, 7966.39, 119.98, 0, 0, 0, 0, 0, 0
1, 1800.00000, 7966.39, 119.98, 0, 0, 0, 0, 0, 0
1, 2400.00000, 7966.23, 119.98, 0, 0, 0, 0, 0, 0
1, 3000.00000, 7966.34, 119.98, 0, 0, 0, 0, 0, 0
2, 0.00000, 7966.47, 119.981, 0, 0, 0, 0, 0, 0
2, 600.00000, 7966.36, 119.98, 0, 0, 0, 0, 0, 0
2, 1200.00000, 7966.35, 119.981, 0, 0, 0, 0, 0, 0
2, 1800.00000, 7966.27, 119.98, 0, 0, 0, 0, 0, 0
2, 2400.00000, 7966.51, 119.981, 0, 0, 0, 0, 0, 0
2, 3000.00000, 7966.53, 119.981, 0, 0, 0, 0, 0, 0
3, 0.00000, 7966.31, 119.981, 0, 0, 0, 0, 0, 0
3, 600.00000, 7966.45, 119.981, 0, 0, 0, 0, 0, 0
3, 1200.00000, 7966.56, 119.981, 0, 0, 0, 0, 0, 0
3, 1800.00000, 7966.45, 119.981, 0, 0, 0, 0, 0, 0
3, 2400.00000, 7966.42, 119.98, 0, 0, 0, 0, 0, 0
3, 3000.00000, 7966.38, 119.981, 0, 0, 0, 0, 0, 0
4, 0.00000, 7966.49, 119.982, 0, 0, 0, 0, 0, 0
4, 600.00000, 7966.55, 119.982, 0, 0, 0, 0, 0, 0
4, 1200.00000, 7966.43, 119.98, 0, 0, 0, 0, 0, 0
4, 1800.00000, 7966.57, 119.982, 0, 0, 0, 0, 0, 0
4, 2400.00000, 7966.57, 119.982, 0, 0, 0, 0, 0, 0
4, 3000.00000, 7966.5, 119.981, 0, 0, 0, 0, 0, 0
5, 0.00000, 7966.52, 119.981, 0, 0, 0, 0, 0, 0
5, 600.00000, 7966.42, 119.981, 0, 0, 0, 0, 0, 0
5, 1200.00000, 7966.51, 119.982, 0, 0, 0, 0, 0, 0
5, 1800.00000, 7966.61, 119.982, 0, 0, 0, 0, 0, 0
5, 2400.00000, 7966.44, 119.981, 0, 0, 0, 0, 0, 0
5, 3000.00000, 7966.58, 119.982, 0, 0, 0, 0, 0, 0
6, 0.00000, 7966.61, 119.981, 0, 0, 0, 0, 0, 0
6, 600.00000, 7966.43, 119.98, 0, 0, 0, 0, 0, 0
6, 1200.00000, 7966.5, 119.981, 0, 0, 0, 0, 0, 0
6, 1800.00000, 7966.49, 119.981, 0, 0, 0, 0, 0, 0
6, 2400.00000, 7966.45, 119.981, 0, 0, 0, 0, 0, 0
6, 3000.00000, 7966.54, 119.98, 0, 0, 0, 0, 0, 0
7, 0.00000, 7966.48, 119.981, 0, 0, 0, 0, 0, 0
7, 600.00000, 7966.57, 119.98, 0, 0, 0, 0, 0, 0
7, 1200.00000, 7966.44, 119.977, 0, 0, 0, 0, 0, 0
7, 1800.00000, 7965.33, 119.959, 0, 0, 0, 0, 0, 0
7, 2400.00000, 7965.05, 119.953, 0, 0, 0, 0, 0, 0
7, 3000.00000, 7964.69, 119.947, 0, 0, 0, 0, 0, 0
8, 0.00000, 7963.95, 119.942, 0, 0, 0, 0, 0, 0
8, 600.00000, 7963.84, 119.937, 0, 0, 0, 0, 0, 0
8, 1200.00000, 7963.64, 119.932, 0, 0, 0, 0, 0, 0
8, 1800.00000, 7963.43, 119.929, 0, 0, 0, 0, 0, 0
8, 2400.00000, 7962.71, 119.922, 0, 0, 0, 0, 0, 0
8, 3000.00000, 7962.02, 119.915, 0, 0, 0, 0, 0, 0
9, 0.00000, 7961.86, 119.91, 0, 0, 0, 0, 0, 0
9, 600.00000, 7961.59, 119.901, 0, 0, 0, 0, 0, 0
9, 1200.00000, 7961.4, 119.893, 0, 0, 0, 0, 0, 0
9, 1800.00000, 7961.23, 119.887, 0, 0, 0, 0, 0, 0
9, 2400.00000, 7961.06, 119.884, 0, 0, 0, 0, 0, 0
9, 3000.00000, 7960.29, 119.878, 0, 0, 0, 0, 0, 0
10, 0.00000, 7960.28, 119.874, 0, 0, 0, 0, 0, 0
10, 600.00000, 7959.97, 119.87, 0, 0, 0, 0, 0, 0
10, 1200.00000, 7959.9, 119.87, 0, 0, 0, 0, 0, 0
10, 1800.00000, 7959.74, 119.868, 0, 0, 0, 0, 0, 0
10, 2400.00000, 7959.99, 119.869, 0, 0, 0, 0, 0, 0
10, 3000.00000, 7960.16, 119.871, 0, 0, 0, 0, 0, 0
11, 0.00000, 7961.4, 119.889, 0, 0, 0, 0, 0, 0
11, 600.00000, 7961.35, 119.889, 0, 0, 0, 0, 0, 0
11, 1200.00000, 7960.96, 119.885, 0, 0, 0, 0, 0, 0
11, 1800.00000, 7959.65, 119.866, 0, 0, 0, 0, 0, 0
11, 2400.00000, 7960.09, 119.869, 0, 0, 0, 0, 0, 0
11, 3000.00000, 7959.68, 119.866, 0, 0, 0, 0, 0, 0
12, 0.00000, 7959.45, 119.865, 0, 0, 0, 0, 0, 0
12, 600.00000, 7959.28, 119.868, 0, 0, 0, 0, 0, 0
12, 1200.00000, 7959.52, 119.87, 0, 0, 0, 0, 0, 0
12, 1800.00000, 7960.1, 119.874, 0, 0, 0, 0, 0, 0
12, 2400.00000, 7959.23, 119.869, 0, 0, 0, 0, 0, 0
12, 3000.00000, 7959.14, 119.867, 0, 0, 0, 0, 0, 0
13, 0.00000, 7959.4, 119.87, 0, 0, 0, 0, 0, 0
13, 600.00000, 7960.31, 119.874, 0, 0, 0, 0, 0, 0
13, 1200.00000, 7960.77, 119.873, 0, 0, 0, 0, 0, 0
13, 1800.00000, 7960.28, 119.872, 0, 0, 0, 0, 0, 0
13, 2400.00000, 7960.33, 119.872, 0, 0, 0, 0, 0, 0
13, 3000.00000, 7960.35, 119.873, 0, 0, 0, 0, 0, 0
14, 0.00000, 7960.73, 119.877, 0, 0, 0, 0, 0, 0
14, 600.00000, 7960.33, 119.876, 0, 0, 0, 0, 0, 0
14, 1200.00000, 7960.94, 119.882, 0, 0, 0, 0, 0, 0
14, 1800.00000, 7960.97, 119.886, 0, 0, 0, 0, 0, 0
14, 2400.00000, 7960.75, 119.885, 0, 0, 0, 0, 0, 0
14, 3000.00000, 7960.8, 119.884, 0, 0, 0, 0, 0, 0
15, 0.00000, 7961.98, 119.902, 0, 0, 0, 0, 0, 0
15, 600.00000, 7961.92, 119.901, 0, 0, 0, 0, 0, 0
15, 1200.00000, 7962.27, 119.903, 0, 0, 0, 0, 0, 0
15, 1800.00000, 7960.72, 119.889, 0, 0, 0, 0, 0, 0
15, 2400.00000, 7960.86, 119.889, 0, 0, 0, 0, 0, 0
15, 3000.00000, 7960.91, 119.887, 0, 0, 0, 0, 0, 0
16, 0.00000, 7960.91, 119.887, 0, 0, 0, 0, 0, 0
16, 600.00000, 7961.25, 119.891, 0, 0, 0, 0, 0, 0
16, 1200.00000, 7961.41, 119.895, 0, 0, 0, 0, 0, 0
16, 1800.00000, 7961.88, 119.904, 0, 0, 0, 0, 0, 0
16, 2400.00000, 7962.1, 119.909, 0, 0, 0, 0, 0, 0
16, 3000.00000, 7961.84, 119.912, 0, 0, 0, 0, 0, 0
17, 0.00000, 7962.46, 119.916, 0, 0, 0, 0, 0, 0
17, 600.00000, 7962.69, 119.917, 0, 0, 0, 0, 0, 0
17, 1200.00000, 7963.04, 119.923, 0, 0, 0, 0, 0, 0
17, 1800.00000, 7963.86, 119.929, 0, 0, 0, 0, 0, 0
17, 2400.00000, 7964.02, 119.933, 0, 0, 0, 0, 0, 0
17, 3000.00000, 7964.22, 119.937, 0, 0, 0, 0, 0, 0
18, 0.00000, 7964.11, 119.94, 0, 0, 0, 0, 0, 0
18, 600.00000, 7964.27, 119.943, 0, 0, 0, 0, 0, 0
18, 1200.00000, 7964.68, 119.95, 0, 0, 0, 0, 0, 0
18, 1800.00000, 7964.61, 119.95, 0, 0, 0, 0, 0, 0
18, 2400.00000, 7964.45, 119.952, 0, 0, 0, 0, 0, 0
18, 3000.00000, 7964.7, 119.956, 0, 0, 0, 0, 0, 0
19, 0.00000, 7965.86, 119.974, 0, 0, 0, 0, 0, 0
19, 600.00000, 7966.19, 119.975, 0, 0, 0, 0, 0, 0
19, 1200.00000, 7966.08, 119.975, 0, 0, 0, 0, 0, 0
19, 1800.00000, 7966.08, 119.976, 0, 0, 0, 0, 0, 0
19, 2400.00000, 7966.15, 119.976, 0, 0, 0, 0, 0, 0
19, 3000.00000, 7966.1, 119.976, 0, 0, 0, 0, 0, 0
20, 0.00000, 7966.11, 119.976, 0, 0, 0, 0, 0, 0
20, 600.00000, 7965.92, 119.975, 0, 0, 0, 0, 0, 0
20, 1200.00000, 7966.04, 119.976, 0, 0, 0, 0, 0, 0
20, 1800.00000, 7966.1, 119.977, 0, 0, 0, 0, 0, 0
20, 2400.00000, 7966.25, 119.977, 0, 0, 0, 0, 0, 0
20, 3000.00000, 7966.13, 119.977, 0, 0, 0, 0, 0, 0
21, 0.00000, 7966.18, 119.977, 0, 0, 0, 0, 0, 0
21, 600.00000, 7966.32, 119.978, 0, 0, 0, 0, 0, 0
21, 1200.00000, 7966.2, 119.978, 0, 0, 0, 0, 0, 0
21, 1800.00000, 7966.1, 119.978, 0, 0, 0, 0, 0, 0
21, 2400.00000, 7966.14, 119.978, 0, 0, 0, 0, 0, 0
21, 3000.00000, 7966.27, 119.978, 0, 0, 0, 0, 0, 0
22, 0.00000, 7966.15, 119.978, 0, 0, 0, 0, 0, 0
22, 600.00000, 7966.19, 119.978, 0, 0, 0, 0, 0, 0
22, 1200.00000, 7966.27, 119.979, 0, 0, 0, 0, 0, 0
22, 1800.00000, 7966.25, 119.978, 0, 0, 0, 0, 0, 0
22, 2400.00000, 7966.08, 119.977, 0, 0, 0, 0, 0, 0
22, 3000.00000, 7966.09, 119.978, 0, 0, 0, 0, 0, 0
23, 0.00000, 7966.28, 119.979, 0, 0, 0, 0, 0, 0
23, 600.00000, 7966.17, 119.978, 0, 0, 0, 0, 0, 0
23, 1200.00000, 7966.01, 119.977, 0, 0, 0, 0, 0, 0
23, 1800.00000, 7966.03, 119.977, 0, 0, 0, 0, 0, 0
23, 2400.00000, 7966.18, 119.978, 0, 0, 0, 0, 0, 0
23, 3000.00000, 7966.21, 119.978, 0, 0, 0, 0, 0, 0
24, 0.00000, 7966.16, 119.979, 0, 0, 0, 0, 0, 0
