hour, t(sec), V1, VAngle1, V2, VAngle2, V3, VAngle3, I1, IAngle1, I2, IAngle2, I3, IAngle3
0, 600.00000, 7966.12, -0.0169884, 7966.56, -120.014, 7966.75, 119.982, 11.5162, -27.0528, 8.51945, -155.994, 9.05107, 105.869
0, 1200.00000, 7966.12, -0.0171633, 7966.53, -120.014, 7966.75, 119.982, 11.5838, -25.6289, 8.64622, -155.074, 9.04014, 106.745
0, 1800.00000, 7966.19, -0.0166509, 7966.6, -120.013, 7966.77, 119.982, 11.0206, -23.7711, 8.85864, -154.727, 8.48467, 104.164
0, 2400.00000, 7966.12, -0.0167481, 7966.59, -120.014, 7966.71, 119.982, 11.0739, -27.6855, 8.61866, -153.475, 9.23747, 103.114
0, 3000.00000, 7966.11, -0.0164264, 7966.6, -120.013, 7966.73, 119.982, 11.1389, -27.6957, 8.26033, -155.235, 8.95713, 105.298
1, 0.00000, 7966.03, -0.0168274, 7966.55, -120.014, 7966.69, 119.982, 12.464, -27.7629, 9.70394, -154.168, 10.2959, 102.886
1, 600.00000, 7965.96, -0.0170157, 7966.51, -120.014, 7966.63, 119.981, 12.2603, -27.0556, 9.47058, -157.648, 9.43163, 103.245
1, 1200.00000, 7966.11, -0.0170809, 7966.55, -120.013, 7966.78, 119.982, 11.4448, -26.7789, 8.5328, -156.232, 8.92919, 105.656
1, 1800.00000, 7966.12, -0.0167075, 7966.63, -120.013, 7966.79, 119.982, 11.5806, -28.9269, 8.27829, -154.793, 9.50555, 106.169
1, 2400.00000, 7966.14, -0.0167814, 7966.61, -120.014, 7966.72, 119.982, 11.1371, -25.369, 9.03632, -154.946, 8.80336, 102.319
1, 3000.00000, 7966.17, -0.0169395, 7966.61, -120.014, 7966.78, 119.982, 11.4533, -26.9465, 8.63098, -154.857, 9.1785, 105.144
2, 0.00000, 7966.16, -0.0165461, 7966.62, -120.013, 7966.86, 119.983, 11.6162, -26.8989, 8.41246, -156.989, 8.93813, 107.029
2, 600.00000, 7966.15, -0.0172294, 7966.55, -120.014, 7966.8, 119.982, 11.3421, -25.8435, 8.49372, -155.727, 8.79126, 106.292
2, 1200.00000, 7966.14, -0.0174436, 7966.45, -120.014, 7966.74, 119.982, 11.8226, -26.2509, 9.23777, -158.767, 8.80583, 103.086
2, 1800.00000, 7966.04, -0.0171152, 7966.45, -120.014, 7966.68, 119.982, 12.4192, -28.2651, 9.49688, -157.444, 9.77027, 102.828
2, 2400.00000, 7966.13, -0.0165982, 7966.57, -120.012, 7966.86, 119.983, 11.4482, -26.8025, 7.90309, -160.706, 8.25128, 109.544
2, 3000.00000, 7966.22, -0.01654, 7966.61, -120.013, 7966.86, 119.983, 11.4334, -25.7616, 8.7919, -154.931, 9.00481, 105.026
3, 0.00000, 7966.15, -0.0165592, 7966.57, -120.013, 7966.75, 119.982, 11.2614, -26.6433, 8.38578, -159.691, 8.26201, 105.46
3, 600.00000, 7966.19, -0.0165055, 7966.58, -120.013, 7966.84, 119.983, 11.2984, -26.309, 8.02863, -158.723, 8.35426, 108.48
3, 1200.00000, 7966.27, -0.0169431, 7966.58, -120.013, 7966.88, 119.983, 11.7586, -25.4352, 8.99694, -155.902, 9.05206, 105.423
3, 1800.00000, 7966.2, -0.0173033, 7966.54, -120.013, 7966.84, 119.983, 12.1217, -25.4891, 9.00596, -158.413, 8.91059, 106.756
3, 2400.00000, 7966.13, -0.0174152, 7966.53, -120.013, 7966.82, 119.982, 11.9274, -27.4522, 9.20482, -156.311, 9.44864, 103.192
3, 3000.00000, 7966.18, -0.017223, 7966.48, -120.014, 7966.76, 119.983, 12.4037, -25.727, 9.57887, -158.587, 9.1662, 104.26
4, 0.00000, 7966.3, -0.0169583, 7966.55, -120.013, 7966.85, 119.983, 11.1371, -24.0543, 8.5626, -157.532, 8.1342, 106.121
4, 600.00000, 7966.31, -0.0163128, 7966.63, -120.013, 7966.89, 119.983, 10.8237, -25.3272, 8.18941, -154.813, 8.45782, 106.3
4, 1200.00000, 7966.24, -0.0168087, 7966.64, -120.013, 7966.86, 119.982, 10.7138, -26.0837, 7.88082, -155.655, 8.32845, 107.064
4, 1800.00000, 7966.34, -0.0168409, 7966.56, -120.013, 7966.89, 119.984, 11.0646, -23.5233, 8.77945, -155.474, 8.34703, 104.991
4, 2400.00000, 7966.29, -0.0168538, 7966.57, -120.013, 7966.89, 119.983, 11.3029, -24.4373, 8.45372, -155.23, 8.62639, 107.65
4, 3000.00000, 7966.23, -0.0170814, 7966.57, -120.013, 7966.89, 119.983, 10.9567, -24.8321, 8.07937, -157.963, 8.02043, 107.83
5, 0.00000, 7966.28, -0.0166941, 7966.64, -120.013, 7966.91, 119.983, 10.9556, -23.5652, 8.23011, -157.651, 7.89548, 107.935
5, 600.00000, 7966.25, -0.0174628, 7966.5, -120.014, 7966.79, 119.983, 11.9654, -23.5957, 9.69699, -155.739, 9.03011, 103.615
5, 1200.00000, 7966.31, -0.0164521, 7966.62, -120.013, 7966.87, 119.983, 10.3179, -25.5139, 7.57165, -155.508, 7.96311, 107.712
5, 1800.00000, 7966.36, -0.0159454, 7966.75, -120.013, 7966.96, 119.983, 10.9325, -25.3821, 8.06824, -154.171, 8.61089, 107.687
5, 2400.00000, 7966.38, -0.0162385, 7966.68, -120.014, 7966.85, 119.983, 10.5257, -24.3055, 8.63198, -155.756, 8.06557, 102.337
5, 3000.00000, 7966.31, -0.0165236, 7966.65, -120.013, 7966.93, 119.983, 11.3401, -25.3767, 8.23193, -156.648, 8.55897, 108.315
6, 0.00000, 7966.27, -0.0166458, 7966.68, -120.013, 7966.96, 119.983, 11.276, -26.5248, 8.01861, -156.079, 8.73704, 108.418
6, 600.00000, 7966.2, -0.0172295, 7966.64, -120.014, 7966.85, 119.982, 11.6592, -24.1526, 8.88556, -150.819, 9.55059, 107.563
6, 1200.00000, 7966.17, -0.0165333, 7966.64, -120.013, 7966.86, 119.982, 11.3765, -27.6782, 8.65273, -155.787, 9.10167, 103.887
6, 1800.00000, 7966.07, -0.0162853, 7966.61, -120.012, 7966.82, 119.982, 11.8386, -30.7702, 8.41058, -153.543, 10.1562, 105.087
6, 2400.00000, 7966.13, -0.0156655, 7966.7, -120.012, 7966.82, 119.982, 10.7905, -30.0745, 7.48607, -151.314, 9.4203, 107.112
6, 3000.00000, 7966.17, -0.0162145, 7966.69, -120.013, 7966.84, 119.982, 11.6242, -27.4908, 8.55209, -149.816, 10.0995, 106.807
7, 0.00000, 7966.17, -0.0164199, 7966.63, -120.013, 7966.81, 119.982, 11.2499, -28.2208, 8.29768, -154.269, 9.25191, 105.285
7, 600.00000, 7966.05, -0.0177996, 7966.56, -120.013, 7966.88, 119.981, 12.161, -27.2012, 8.57914, -151.228, 10.2364, 108.791
7, 1200.00000, 7965.99, -0.0204799, 7966.67, -120.01, 7966.96, 119.98, 13.0745, -26.7594, 9.81731, -148.944, 11.4299, 106.6
7, 1800.00000, 7965.02, -0.0379488, 7965.51, -120.032, 7966.06, 119.962, 15.8383, -23.8572, 12.1999, -148.411, 13.4377, 107.738
7, 2400.00000, 7964.66, -0.041988, 7965.24, -120.036, 7965.83, 119.958, 16.2618, -23.8942, 13.0834, -146.452, 14.3773, 106.01
7, 3000.00000, 7964.23, -0.0465335, 7964.98, -120.04, 7965.58, 119.952, 19.0107, -22.9042, 15.2959, -142.853, 17.468, 107.735
8, 0.00000, 7963.75, -0.0505223, 7964.66, -120.042, 7965.23, 119.948, 20.0925, -22.7074, 16.6321, -143.044, 18.5164, 106.457
8, 600.00000, 7963.29, -0.0546568, 7964.4, -120.045, 7965.13, 119.943, 21.882, -23.9633, 17.4072, -141.602, 20.7013, 107.877
8, 1200.00000, 7962.9, -0.0594239, 7964.13, -120.048, 7964.99, 119.939, 22.1098, -22.9873, 18.3993, -142.864, 20.5473, 106.068
8, 1800.00000, 7962.69, -0.0642235, 7963.82, -120.051, 7964.81, 119.935, 23.3674, -20.4951, 20.922, -140.656, 22.1949, 104.906
8, 2400.00000, 7962.26, -0.0700709, 7963.35, -120.057, 7964.24, 119.93, 25.9006, -20.6554, 24.2406, -139.932, 25.3872, 102.942
8, 3000.00000, 7961.78, -0.0770059, 7962.84, -120.063, 7963.81, 119.923, 26.8836, -18.2968, 25.3211, -140.496, 25.2698, 103.709
9, 0.00000, 7961.64, -0.0836104, 7962.43, -120.07, 7963.64, 119.918, 28.1569, -17.4919, 27.1379, -139.629, 26.7671, 103.351
9, 600.00000, 7961.02, -0.0903775, 7962.15, -120.074, 7963.6, 119.911, 31.022, -18.8602, 27.331, -140.396, 28.6808, 106.822
9, 1200.00000, 7960.48, -0.0967476, 7961.82, -120.079, 7963.54, 119.904, 34.0552, -18.0218, 29.4334, -141.849, 30.1703, 107.834
9, 1800.00000, 7960.34, -0.103685, 7961.55, -120.083, 7963.53, 119.899, 34.3802, -17.143, 29.8198, -140.986, 30.487, 108.521
9, 2400.00000, 7960.32, -0.108063, 7961.34, -120.088, 7963.28, 119.895, 34.8368, -16.4821, 31.2536, -139.794, 31.5382, 107.602
9, 3000.00000, 7959.99, -0.113833, 7960.92, -120.094, 7962.78, 119.89, 35.3811, -16.4363, 32.4714, -139.198, 32.603, 106.677
10, 0.00000, 7959.72, -0.117376, 7960.73, -120.098, 7962.67, 119.886, 36.632, -15.2207, 34.0882, -138.92, 33.4428, 106.776
10, 600.00000, 7959.49, -0.12057, 7960.67, -120.099, 7962.53, 119.883, 37.324, -14.8306, 33.9296, -139.568, 33.185, 108.001
10, 1200.00000, 7959.5, -0.121184, 7960.53, -120.103, 7962.33, 119.882, 37.7195, -15.4341, 35.07, -138.54, 34.754, 106.858
10, 1800.00000, 7959.52, -0.122755, 7960.61, -120.103, 7962.41, 119.88, 36.797, -14.494, 34.4391, -138.364, 33.5819, 107.124
10, 2400.00000, 7959.68, -0.122797, 7960.63, -120.102, 7962.59, 119.882, 38.0873, -13.6796, 36.2349, -138.354, 34.5473, 106.706
10, 3000.00000, 7959.89, -0.122046, 7960.61, -120.103, 7962.72, 119.883, 38.8402, -13.3126, 35.797, -139.421, 33.9332, 108.22
11, 0.00000, 7960.75, -0.107546, 7961.29, -120.088, 7963.43, 119.899, 40.2382, -13.5217, 37.4245, -138.868, 35.7427, 107.817
11, 600.00000, 7960.59, -0.107634, 7961.3, -120.087, 7963.44, 119.898, 42.1655, -13.7687, 37.7403, -139.392, 36.7246, 109.574
11, 1200.00000, 7960.34, -0.107195, 7961.77, -120.08, 7963.43, 119.896, 43.137, -12.7301, 35.3029, -141.625, 37.1256, 109.358
11, 1800.00000, 7959.61, -0.125958, 7960.36, -120.107, 7962.38, 119.879, 52.1789, -11.373, 47.9187, -137.071, 45.7069, 110.878
11, 2400.00000, 7959.66, -0.124938, 7960.28, -120.106, 7962.44, 119.881, 53.6248, -12.2889, 48.9869, -137.102, 47.1307, 111.257
11, 3000.00000, 7959.47, -0.12672, 7960.1, -120.109, 7962.17, 119.879, 52.6212, -11.9574, 49.3682, -136.454, 46.9991, 110.271
12, 0.00000, 7959.39, -0.126289, 7960.12, -120.108, 7961.95, 119.878, 52.0519, -12.7208, 47.8273, -136.064, 47.4944, 110.295
12, 600.00000, 7959.45, -0.124158, 7960.04, -120.108, 7961.87, 119.88, 50.9125, -12.0564, 46.9222, -136.761, 45.0631, 110.969
12, 1200.00000, 7959.74, -0.122768, 7960.18, -120.106, 7962.07, 119.883, 50.4833, -11.7332, 46.6541, -136.484, 44.9398, 110.716
12, 1800.00000, 7959.99, -0.120967, 7960.43, -120.101, 7962.49, 119.886, 50.5394, -11.8915, 44.7155, -137.492, 44.1777, 111.513
12, 2400.00000, 7959.6, -0.123832, 7960.18, -120.105, 7961.99, 119.882, 51.6058, -11.1153, 47.6717, -136.862, 45.8703, 109.491
12, 3000.00000, 7959.42, -0.123637, 7960.23, -120.104, 7961.98, 119.881, 51.5398, -11.0779, 45.4525, -137.613, 44.457, 111.907
13, 0.00000, 7959.64, -0.121175, 7960.36, -120.103, 7962.1, 119.883, 50.6484, -11.1997, 43.936, -138.811, 42.4286, 112.726
13, 600.00000, 7959.77, -0.120029, 7960.5, -120.1, 7962.6, 119.886, 50.6965, -11.2671, 43.2996, -138.922, 42.0702, 113.973
13, 1200.00000, 7959.68, -0.120383, 7960.47, -120.1, 7962.86, 119.885, 51.2095, -11.5943, 45.7917, -137.832, 43.4206, 113.074
13, 1800.00000, 7959.69, -0.121731, 7960.39, -120.102, 7962.59, 119.884, 50.4604, -11.4299, 44.7564, -137.592, 43.0373, 113.11
13, 2400.00000, 7959.77, -0.120855, 7960.51, -120.102, 7962.53, 119.884, 50.3201, -11.7333, 44.43, -137.641, 43.2034, 112.836
13, 3000.00000, 7959.98, -0.118256, 7960.8, -120.1, 7962.58, 119.886, 50.0338, -10.5523, 44.3858, -137.866, 42.2989, 112.575
14, 0.00000, 7960.15, -0.113819, 7961.08, -120.099, 7962.62, 119.888, 48.6979, -11.8898, 43.9092, -136.128, 43.045, 112.604
14, 600.00000, 7960.12, -0.110399, 7961.69, -120.095, 7962.6, 119.887, 46.8278, -11.6921, 40.8457, -135.723, 41.8382, 112.759
14, 1200.00000, 7960.54, -0.103478, 7962.15, -120.092, 7962.91, 119.892, 47.1328, -11.6221, 41.335, -136.847, 40.7032, 113.84
14, 1800.00000, 7960.88, -0.0993422, 7962.47, -120.087, 7963, 119.897, 47.7745, -10.0122, 41.7745, -137.678, 40.2091, 113.246
14, 2400.00000, 7960.73, -0.101867, 7962.21, -120.089, 7962.93, 119.895, 47.819, -10.4325, 42.2652, -137.435, 40.7089, 112.469
14, 3000.00000, 7960.52, -0.101722, 7962.09, -120.09, 7962.94, 119.895, 49.0711, -11.065, 43.6288, -138.144, 41.2098, 113.1
15, 0.00000, 7961.06, -0.0860276, 7962.71, -120.071, 7963.69, 119.911, 38.2677, -13.368, 32.2664, -143.258, 30.3636, 112.003
15, 600.00000, 7960.91, -0.0866438, 7962.64, -120.071, 7963.68, 119.91, 37.8354, -13.468, 31.2331, -143.455, 29.8061, 113.12
15, 1200.00000, 7961.09, -0.0858839, 7962.79, -120.065, 7963.9, 119.913, 38.9778, -12.5649, 34.6164, -141.391, 32.0294, 110.078
15, 1800.00000, 7960.34, -0.101581, 7961.45, -120.085, 7962.89, 119.9, 38.2446, -12.4025, 32.9257, -143.107, 30.0748, 111.497
15, 2400.00000, 7960.54, -0.09995, 7961.74, -120.086, 7962.92, 119.899, 36.3332, -12.7827, 31.2588, -141.115, 29.8088, 111.866
15, 3000.00000, 7960.44, -0.0983201, 7962.1, -120.085, 7963.06, 119.898, 35.1943, -14.7551, 29.1086, -141.46, 29.3508, 112.573
16, 0.00000, 7960.43, -0.0984111, 7962.11, -120.083, 7963.13, 119.899, 32.9877, -14.6142, 27.9685, -140.836, 27.9323, 111.499
16, 600.00000, 7960.65, -0.0945238, 7962.37, -120.08, 7963.39, 119.902, 31.1348, -15.562, 25.3888, -142.858, 25.6156, 112.388
16, 1200.00000, 7960.92, -0.0890992, 7962.78, -120.076, 7963.49, 119.906, 31.3556, -15.0905, 26.5687, -142.698, 25.9313, 110.642
16, 1800.00000, 7961.63, -0.0835956, 7963.07, -120.072, 7963.65, 119.913, 29.8873, -13.6841, 25.6775, -143.518, 23.865, 110.594
16, 2400.00000, 7961.91, -0.0793319, 7963.28, -120.069, 7963.7, 119.917, 30.0016, -15.644, 24.9279, -145.106, 23.8951, 110.697
16, 3000.00000, 7962.14, -0.0756075, 7963.51, -120.068, 7963.67, 119.92, 29.2376, -14.4662, 24.4296, -146.571, 22.2251, 110.887
17, 0.00000, 7962.28, -0.0729684, 7963.59, -120.063, 7964.05, 119.924, 28.0976, -16.0721, 22.4906, -148.07, 21.2076, 111.908
17, 600.00000, 7962.1, -0.0703804, 7963.71, -120.06, 7964.18, 119.925, 27.6178, -16.9597, 21.7093, -148.844, 20.8226, 112.118
17, 1200.00000, 7962.56, -0.0650556, 7963.95, -120.057, 7964.37, 119.93, 26.5299, -15.6219, 20.3343, -150.961, 18.7084, 114.55
17, 1800.00000, 7963.02, -0.0615259, 7964.29, -120.052, 7964.94, 119.935, 25.4662, -15.7477, 19.0613, -150, 18.2892, 115.954
17, 2400.00000, 7963.26, -0.0604927, 7964.15, -120.049, 7965.16, 119.94, 23.6224, -14.4321, 18.6124, -150.92, 16.3341, 113.879
17, 3000.00000, 7963.54, -0.0582971, 7964.24, -120.047, 7965.28, 119.943, 23.0517, -14.6414, 18.0305, -151.614, 15.7763, 114.1
18, 0.00000, 7963.72, -0.0552755, 7964.33, -120.046, 7965.22, 119.945, 22.1219, -13.8273, 17.6607, -151.903, 14.8322, 113.451
18, 600.00000, 7964.13, -0.0522567, 7964.67, -120.043, 7965.42, 119.949, 21.2256, -13.9657, 17.0825, -150.065, 14.8291, 113.007
18, 1200.00000, 7964.7, -0.0473903, 7964.87, -120.041, 7965.61, 119.955, 19.5142, -13.3127, 16.0705, -151.101, 13.2132, 111.869
18, 1800.00000, 7964.79, -0.0460369, 7965.07, -120.04, 7965.62, 119.955, 18.8164, -14.3612, 15.8149, -149.202, 13.5858, 109.993
18, 2400.00000, 7964.93, -0.0439434, 7965.15, -120.039, 7965.51, 119.957, 17.5101, -13.8165, 14.7331, -148.607, 12.6586, 110.477
18, 3000.00000, 7965.18, -0.0405249, 7965.3, -120.039, 7965.56, 119.96, 15.2162, -17.5006, 12.7862, -145.348, 12.5038, 108.633
19, 0.00000, 7966.02, -0.0242907, 7966.18, -120.023, 7966.31, 119.976, 13.1738, -17.0583, 11.3408, -150.027, 9.92726, 106.211
19, 600.00000, 7966.05, -0.0235052, 7966.22, -120.02, 7966.54, 119.977, 14.4108, -15.8026, 12.0544, -150.413, 10.4425, 108.914
19, 1200.00000, 7965.96, -0.022334, 7966.27, -120.019, 7966.52, 119.977, 13.5513, -17.8272, 11.4444, -150.415, 10.2356, 106.748
19, 1800.00000, 7965.93, -0.0222496, 7966.24, -120.019, 7966.5, 119.978, 14.2316, -17.9495, 11.6996, -150.335, 10.7233, 108.339
19, 2400.00000, 7965.89, -0.0224628, 7966.24, -120.019, 7966.55, 119.977, 14.2644, -18.2393, 11.5765, -152.137, 10.4187, 108.55
19, 3000.00000, 7965.87, -0.0227612, 7966.15, -120.019, 7966.51, 119.978, 14.1443, -16.5397, 12.1313, -152.452, 10.0392, 106.221
20, 0.00000, 7965.8, -0.0230492, 7966.1, -120.019, 7966.48, 119.977, 14.9162, -19.1645, 12.2465, -151.052, 11.3404, 107.311
20, 600.00000, 7965.79, -0.0226446, 7966.13, -120.019, 7966.42, 119.977, 13.8107, -18.5943, 11.6572, -153.052, 10.058, 105.569
20, 1200.00000, 7965.81, -0.0227647, 7966.07, -120.018, 7966.48, 119.978, 14.9345, -17.5895, 12.5696, -153.285, 10.6025, 106.491
20, 1800.00000, 7965.82, -0.0221687, 7966.1, -120.017, 7966.53, 119.978, 13.4546, -18.1229, 11.2981, -153.902, 9.53124, 106.095
20, 2400.00000, 7965.85, -0.0218103, 7966.18, -120.017, 7966.61, 119.979, 14.3741, -19.3483, 11.6477, -153.288, 10.4875, 107.53
20, 3000.00000, 7965.86, -0.0214394, 7966.18, -120.017, 7966.58, 119.979, 13.5823, -19.4666, 11.2629, -154.693, 9.70505, 105.694
21, 0.00000, 7965.93, -0.0215137, 7966.2, -120.017, 7966.62, 119.979, 13.6905, -17.1793, 11.5245, -153.866, 9.52344, 106.688
21, 600.00000, 7965.99, -0.0213165, 7966.22, -120.017, 7966.68, 119.98, 14.0321, -18.4488, 11.6068, -155.532, 9.64983, 106.544
21, 1200.00000, 7966.04, -0.0206009, 7966.27, -120.017, 7966.59, 119.98, 12.9229, -19.0504, 11.26, -153.116, 9.56236, 103.137
21, 1800.00000, 7966.03, -0.020534, 7966.26, -120.018, 7966.49, 119.98, 13.1906, -19.2663, 11.8916, -149.919, 10.5396, 101.844
21, 2400.00000, 7966.01, -0.0207415, 7966.26, -120.017, 7966.58, 119.98, 13.1935, -18.2159, 11.0156, -155.121, 9.12188, 106.169
21, 3000.00000, 7966.03, -0.0204945, 7966.27, -120.017, 7966.61, 119.98, 13.3824, -19.6062, 11.3156, -152.636, 10.026, 104.784
22, 0.00000, 7965.99, -0.0205028, 7966.27, -120.017, 7966.57, 119.98, 12.6892, -20.6068, 10.8365, -153.366, 9.58042, 103.226
22, 600.00000, 7966.02, -0.0209535, 7966.25, -120.017, 7966.59, 119.98, 13.805, -17.8527, 11.8321, -151.92, 10.1697, 105.409
22, 1200.00000, 7966.05, -0.0204059, 7966.28, -120.016, 7966.65, 119.98, 12.5513, -19.1587, 10.7717, -154.262, 9.05916, 103.758
22, 1800.00000, 7966.02, -0.02064, 7966.24, -120.017, 7966.61, 119.98, 13.1913, -18.9193, 11.2852, -152.597, 9.78788, 104.562
22, 2400.00000, 7965.94, -0.0216548, 7966.12, -120.018, 7966.52, 119.979, 13.5606, -18.1787, 12.0403, -151.503, 10.24, 103
22, 3000.00000, 7965.95, -0.0205655, 7966.25, -120.017, 7966.55, 119.979, 12.6488, -21.4388, 10.2745, -154.649, 9.36195, 105.423
23, 0.00000, 7966.02, -0.0204354, 7966.26, -120.016, 7966.63, 119.98, 12.8994, -19.2029, 11.0322, -152.89, 9.56888, 104.295
23, 600.00000, 7965.95, -0.0204983, 7966.23, -120.017, 7966.54, 119.98, 12.8442, -20.7009, 10.8381, -152.998, 9.7532, 104
23, 1200.00000, 7965.87, -0.0207693, 7966.23, -120.017, 7966.45, 119.979, 14.0261, -20.0608, 11.6076, -151.089, 10.8526, 106.132
23, 1800.00000, 7965.85, -0.0210102, 7966.25, -120.017, 7966.5, 119.978, 12.7207, -20.8975, 10.7288, -153.899, 9.52963, 103.66
23, 2400.00000, 7965.91, -0.0209341, 7966.21, -120.017, 7966.56, 119.979, 13.5333, -19.3868, 11.3581, -154.365, 9.74213, 105.035
23, 3000.00000, 7966.01, -0.0205806, 7966.27, -120.017, 7966.56, 119.98, 12.8163, -19.1566, 11.5365, -151.617, 9.88801, 101.422
24, 0.00000, 7966.04, -0.0182166, 7966.46, -120.015, 7966.62, 119.981, 11.5163, -27.0541, 8.5197, -155.995, 9.05124, 105.867
