hour, t(sec), V1, VAngle1, V2, VAngle2, I1, IAngle1, I2, IAngle2
0, 600.00000, 7966.16, -120.015, 0, 0, 0, 0, 0, 0
0, 1200.00000, 7966.08, -120.015, 0, 0, 0, 0, 0, 0
0, 1800.00000, 7966.17, -120.015, 0, 0, 0, 0, 0, 0
0, 2400.00000, 7966.16, -120.015, 0, 0, 0, 0, 0, 0
0, 3000.00000, 7966.18, -120.015, 0, 0, 0, 0, 0, 0
1, 0.00000, 7966.16, -120.015, 0, 0, 0, 0, 0, 0
1, 600.00000, 7966.08, -120.016, 0, 0, 0, 0, 0, 0
1, 1200.00000, 7966.16, -120.015, 0, 0, 0, 0, 0, 0
1, 1800.00000, 7966.24, -120.015, 0, 0, 0, 0, 0, 0
1, 2400.00000, 7966.18, -120.016, 0, 0, 0, 0, 0, 0
1, 3000.00000, 7966.18, -120.015, 0, 0, 0, 0, 0, 0
2, 0.00000, 7966.22, -120.014, 0, 0, 0, 0, 0, 0
2, 600.00000, 7966.11, -120.015, 0, 0, 0, 0, 0, 0
2, 1200.00000, 7966.02, -120.015, 0, 0, 0, 0, 0, 0
2, 1800.00000, 7965.97, -120.015, 0, 0, 0, 0, 0, 0
2, 2400.00000, 7966.13, -120.013, 0, 0, 0, 0, 0, 0
2, 3000.00000, 7966.23, -120.014, 0, 0, 0, 0, 0, 0
3, 0.00000, 7966.11, -120.015, 0, 0, 0, 0, 0, 0
3, 600.00000, 7966.15, -120.014, 0, 0, 0, 0, 0, 0
3, 1200.00000, 7966.19, -120.014, 0, 0, 0, 0, 0, 0
3, 1800.00000, 7966.1, -120.015, 0, 0, 0, 0, 0, 0
3, 2400.00000, 7966.07, -120.015, 0, 0, 0, 0, 0, 0
3, 3000.00000, 7966.08, -120.015, 0, 0, 0, 0, 0, 0
4, 0.00000, 7966.15, -120.015, 0, 0, 0, 0, 0, 0
4, 600.00000, 7966.23, -120.014, 0, 0, 0, 0, 0, 0
4, 1200.00000, 7966.23, -120.015, 0, 0, 0, 0, 0, 0
4, 1800.00000, 7966.16, -120.014, 0, 0, 0, 0, 0, 0
4, 2400.00000, 7966.16, -120.014, 0, 0, 0, 0, 0, 0
4, 3000.00000, 7966.14, -120.014, 0, 0, 0, 0, 0, 0
5, 0.00000, 7966.26, -120.014, 0, 0, 0, 0, 0, 0
5, 600.00000, 7966.04, -120.015, 0, 0, 0, 0, 0, 0
5, 1200.00000, 7966.17, -120.014, 0, 0, 0, 0, 0, 0
5, 1800.00000, 7966.37, -120.014, 0, 0, 0, 0, 0, 0
5, 2400.00000, 7966.27, -120.015, 0, 0, 0, 0, 0, 0
5, 3000.00000, 7966.27, -120.014, 0, 0, 0, 0, 0, 0
6, 0.00000, 7966.27, -120.014, 0, 0, 0, 0, 0, 0
6, 600.00000, 7966.2, -120.015, 0, 0, 0, 0, 0, 0
6, 1200.00000, 7966.29, -120.014, 0, 0, 0, 0, 0, 0
6, 1800.00000, 7966.21, -120.013, 0, 0, 0, 0, 0, 0
6, 2400.00000, 7966.34, -120.013, 0, 0, 0, 0, 0, 0
6, 3000.00000, 7966.45, -120.014, 0, 0, 0, 0, 0, 0
7, 0.00000, 7966.37, -120.014, 0, 0, 0, 0, 0, 0
7, 600.00000, 7966.2, -120.014, 0, 0, 0, 0, 0, 0
7, 1200.00000, 7966.79, -120.005, 0, 0, 1.05543, 55.5234, 1.05543, -124.477
7, 1800.00000, 7964.24, -120.037, 0, 0, 2.77113, -124.509, 2.77113, 55.4912
7, 2400.00000, 7963.76, -120.043, 0, 0, 2.95241, -124.515, 2.95241, 55.4855
7, 3000.00000, 7963.27, -120.047, 0, 0, 2.96453, -124.519, 2.96453, 55.4812
8, 0.00000, 7962.66, -120.049, 0, 0, 2.74247, -124.521, 2.74247, 55.4791
8, 600.00000, 7962.34, -120.054, 0, 0, 2.93687, -124.525, 2.93687, 55.4748
8, 1200.00000, 7962.15, -120.057, 0, 0, 2.8196, -124.528, 2.8196, 55.472
8, 1800.00000, 7961.85, -120.058, 0, 0, 2.58524, -124.529, 2.58524, 55.4709
8, 2400.00000, 7961.29, -120.065, 0, 0, 2.49346, -124.536, 2.49346, 55.4638
8, 3000.00000, 7960.61, -120.073, 0, 0, 2.49243, -124.544, 2.49243, 55.4559
9, 0.00000, 7959.82, -120.081, 0, 0, 2.59506, -124.553, 2.59506, 55.4474
9, 600.00000, 7959.19, -120.086, 0, 0, 2.67189, -124.558, 2.67189, 55.442
9, 1200.00000, 7958.7, -120.094, 0, 0, 3.02118, -124.566, 3.02118, 55.4344
9, 1800.00000, 7958.11, -120.099, 0, 0, 2.8775, -124.57, 2.8775, 55.4299
9, 2400.00000, 7957.96, -120.104, 0, 0, 2.7995, -124.575, 2.7995, 55.4246
9, 3000.00000, 7957.1, -120.111, 0, 0, 2.65556, -124.583, 2.65556, 55.4172
10, 0.00000, 7956.94, -120.116, 0, 0, 2.90139, -124.588, 2.90139, 55.4122
10, 600.00000, 7956.98, -120.115, 0, 0, 2.53876, -124.587, 2.53876, 55.413
10, 1200.00000, 7956.62, -120.121, 0, 0, 2.86196, -124.592, 2.86196, 55.4077
10, 1800.00000, 7956.79, -120.12, 0, 0, 2.57733, -124.591, 2.57733, 55.4088
10, 2400.00000, 7956.92, -120.12, 0, 0, 2.61639, -124.591, 2.61639, 55.4088
10, 3000.00000, 7956.67, -120.123, 0, 0, 2.90089, -124.594, 2.90089, 55.4058
11, 0.00000, 7958.67, -120.102, 0, 0, 0, 0, 0, 0
11, 600.00000, 7958.65, -120.101, 0, 0, 0, 0, 0, 0
11, 1200.00000, 7959.64, -120.087, 0, 0, 0, 0, 0, 0
11, 1800.00000, 7956.54, -120.127, 0, 0, 0, 0, 0, 0
11, 2400.00000, 7956.67, -120.126, 0, 0, 0, 0, 0, 0
11, 3000.00000, 7956.44, -120.128, 0, 0, 0, 0, 0, 0
12, 0.00000, 7956.57, -120.126, 0, 0, 0, 0, 0, 0
12, 600.00000, 7956.11, -120.127, 0, 0, 0, 0, 0, 0
12, 1200.00000, 7956.35, -120.124, 0, 0, 0, 0, 0, 0
12, 1800.00000, 7957.08, -120.117, 0, 0, 0, 0, 0, 0
12, 2400.00000, 7956.48, -120.122, 0, 0, 0, 0, 0, 0
12, 3000.00000, 7956.42, -120.121, 0, 0, 0, 0, 0, 0
13, 0.00000, 7956.51, -120.12, 0, 0, 0, 0, 0, 0
13, 600.00000, 7957.04, -120.115, 0, 0, 0, 0, 0, 0
13, 1200.00000, 7956.9, -120.116, 0, 0, 0, 0, 0, 0
13, 1800.00000, 7956.47, -120.118, 0, 0, 0, 0, 0, 0
13, 2400.00000, 7956.76, -120.117, 0, 0, 0, 0, 0, 0
13, 3000.00000, 7957.4, -120.114, 0, 0, 0, 0, 0, 0
14, 0.00000, 7957.93, -120.113, 0, 0, 0, 0, 0, 0
14, 600.00000, 7958.74, -120.108, 0, 0, 0, 0, 0, 0
14, 1200.00000, 7959.29, -120.107, 0, 0, 0, 0, 0, 0
14, 1800.00000, 7959.98, -120.099, 0, 0, 0, 0, 0, 0
14, 2400.00000, 7959.25, -120.102, 0, 0, 0, 0, 0, 0
14, 3000.00000, 7958.9, -120.105, 0, 0, 0, 0, 0, 0
15, 0.00000, 7960.39, -120.08, 0, 0, 0, 0, 0, 0
15, 600.00000, 7960.34, -120.08, 0, 0, 0, 0, 0, 0
15, 1200.00000, 7961.3, -120.068, 0, 0, 0, 0, 0, 0
15, 1800.00000, 7958.57, -120.097, 0, 0, 0, 0, 0, 0
15, 2400.00000, 7958.94, -120.099, 0, 0, 0, 0, 0, 0
15, 3000.00000, 7959.42, -120.098, 0, 0, 0, 0, 0, 0
16, 0.00000, 7959.5, -120.095, 0, 0, 0, 0, 0, 0
16, 600.00000, 7959.71, -120.093, 0, 0, 0, 0, 0, 0
16, 1200.00000, 7960.25, -120.088, 0, 0, 0, 0, 0, 0
16, 1800.00000, 7961.21, -120.082, 0, 0, 0, 0, 0, 0
16, 2400.00000, 7961.63, -120.078, 0, 0, 0, 0, 0, 0
16, 3000.00000, 7961.51, -120.077, 0, 0, 0, 0, 0, 0
17, 0.00000, 7961.62, -120.072, 0, 0, 0, 0, 0, 0
17, 600.00000, 7961.96, -120.068, 0, 0, 0, 0, 0, 0
17, 1200.00000, 7962.23, -120.066, 0, 0, 0, 0, 0, 0
17, 1800.00000, 7962.92, -120.059, 0, 0, 0, 0, 0, 0
17, 2400.00000, 7962.66, -120.056, 0, 0, 0, 0, 0, 0
17, 3000.00000, 7962.87, -120.052, 0, 0, 0, 0, 0, 0
18, 0.00000, 7962.85, -120.053, 0, 0, 0, 0, 0, 0
18, 600.00000, 7963.34, -120.048, 0, 0, 0, 0, 0, 0
18, 1200.00000, 7963.54, -120.047, 0, 0, 0, 0, 0, 0
18, 1800.00000, 7963.82, -120.044, 0, 0, 0, 0, 0, 0
18, 2400.00000, 7963.9, -120.044, 0, 0, 0, 0, 0, 0
18, 3000.00000, 7964.01, -120.044, 0, 0, 0, 0, 0, 0
19, 0.00000, 7965.65, -120.024, 0, 0, 0, 0, 0, 0
19, 600.00000, 7965.79, -120.021, 0, 0, 0, 0, 0, 0
19, 1200.00000, 7965.83, -120.021, 0, 0, 0, 0, 0, 0
19, 1800.00000, 7965.8, -120.02, 0, 0, 0, 0, 0, 0
19, 2400.00000, 7965.82, -120.02, 0, 0, 0, 0, 0, 0
19, 3000.00000, 7965.69, -120.02, 0, 0, 0, 0, 0, 0
20, 0.00000, 7965.62, -120.02, 0, 0, 0, 0, 0, 0
20, 600.00000, 7965.57, -120.02, 0, 0, 0, 0, 0, 0
20, 1200.00000, 7965.58, -120.02, 0, 0, 0, 0, 0, 0
20, 1800.00000, 7965.57, -120.018, 0, 0, 0, 0, 0, 0
20, 2400.00000, 7965.71, -120.018, 0, 0, 0, 0, 0, 0
20, 3000.00000, 7965.67, -120.018, 0, 0, 0, 0, 0, 0
21, 0.00000, 7965.72, -120.018, 0, 0, 0, 0, 0, 0
21, 600.00000, 7965.76, -120.017, 0, 0, 0, 0, 0, 0
21, 1200.00000, 7965.8, -120.018, 0, 0, 0, 0, 0, 0
21, 1800.00000, 7965.79, -120.019, 0, 0, 0, 0, 0, 0
21, 2400.00000, 7965.77, -120.018, 0, 0, 0, 0, 0, 0
21, 3000.00000, 7965.8, -120.017, 0, 0, 0, 0, 0, 0
22, 0.00000, 7965.76, -120.018, 0, 0, 0, 0, 0, 0
22, 600.00000, 7965.77, -120.018, 0, 0, 0, 0, 0, 0
22, 1200.00000, 7965.81, -120.017, 0, 0, 0, 0, 0, 0
22, 1800.00000, 7965.79, -120.017, 0, 0, 0, 0, 0, 0
22, 2400.00000, 7965.56, -120.019, 0, 0, 0, 0, 0, 0
22, 3000.00000, 7965.73, -120.018, 0, 0, 0, 0, 0, 0
23, 0.00000, 7965.8, -120.017, 0, 0, 0, 0, 0, 0
23, 600.00000, 7965.76, -120.018, 0, 0, 0, 0, 0, 0
23, 1200.00000, 7965.67, -120.018, 0, 0, 0, 0, 0, 0
23, 1800.00000, 7965.67, -120.019, 0, 0, 0, 0, 0, 0
23, 2400.00000, 7965.68, -120.018, 0, 0, 0, 0, 0, 0
23, 3000.00000, 7965.78, -120.018, 0, 0, 0, 0, 0, 0
24, 0.00000, 7965.95, -120.017, 0, 0, 0, 0, 0, 0
