hour, t(sec), V1, VAngle1, V2, VAngle2, V3, VAngle3, I1, IAngle1, I2, IAngle2, I3, IAngle3
0, 600.00000, 7965.18, -0.0225513, 7965.79, -120.018, 7966.04, 119.976, 45.9081, -30.1419, 36.6762, -150.399, 41.9075, 100.746
0, 1200.00000, 7965.19, -0.0227669, 7965.75, -120.018, 7966.03, 119.976, 46.1042, -29.8306, 37.1008, -150.686, 41.8076, 100.54
0, 1800.00000, 7965.27, -0.022098, 7965.85, -120.018, 7966.07, 119.976, 44.8269, -29.9325, 36.1729, -149.796, 41.2726, 100.594
0, 2400.00000, 7965.18, -0.0221914, 7965.84, -120.018, 7965.97, 119.976, 45.5418, -30.6143, 36.7302, -149.106, 42.7505, 100.346
0, 3000.00000, 7965.18, -0.0217614, 7965.85, -120.018, 7966.01, 119.976, 45.1413, -31.2303, 35.9367, -150.127, 41.9725, 100.211
1, 0.00000, 7965.07, -0.0222844, 7965.79, -120.018, 7965.96, 119.975, 46.4587, -31.5143, 36.6569, -150.425, 43.0795, 100.334
1, 600.00000, 7964.97, -0.0225339, 7965.72, -120.018, 7965.88, 119.975, 47.4929, -32.1201, 37.3413, -150.812, 44.1298, 99.9509
1, 1200.00000, 7965.17, -0.0226151, 7965.78, -120.018, 7966.08, 119.976, 46.0788, -30.1943, 36.3984, -150.937, 41.6379, 101.097
1, 1800.00000, 7965.18, -0.0221531, 7965.89, -120.018, 7966.09, 119.976, 45.5219, -30.689, 35.5313, -149.725, 42.0118, 101.622
1, 2400.00000, 7965.21, -0.0222248, 7965.87, -120.018, 7966, 119.976, 45.4094, -30.3568, 36.5482, -148.769, 42.6474, 100.722
1, 3000.00000, 7965.25, -0.0224355, 7965.86, -120.018, 7966.07, 119.976, 45.2929, -29.6452, 36.3475, -149.253, 41.7878, 101.217
2, 0.00000, 7965.24, -0.0219128, 7965.88, -120.017, 7966.18, 119.977, 44.8114, -30.4083, 34.7945, -151.235, 40.2621, 101.677
2, 600.00000, 7965.23, -0.0228724, 7965.78, -120.018, 7966.1, 119.976, 45.9477, -29.348, 36.7103, -150.406, 41.4581, 101.312
2, 1200.00000, 7965.2, -0.0231532, 7965.64, -120.018, 7966.02, 119.977, 46.4077, -29.2121, 38.0162, -151.611, 41.3355, 99.839
2, 1800.00000, 7965.08, -0.0227068, 7965.64, -120.018, 7965.94, 119.976, 46.8614, -30.9382, 37.7179, -152.168, 42.2631, 99.3164
2, 2400.00000, 7965.19, -0.022021, 7965.81, -120.016, 7966.19, 119.977, 45.3068, -30.7608, 34.8644, -152.9, 39.8493, 101.432
2, 3000.00000, 7965.31, -0.0219248, 7965.86, -120.017, 7966.17, 119.977, 44.3385, -29.7484, 35.1762, -150.946, 39.8473, 101.212
3, 0.00000, 7965.22, -0.0219596, 7965.81, -120.018, 7966.03, 119.977, 45.0283, -30.5653, 36.2361, -150.612, 41.3156, 100.037
3, 600.00000, 7965.27, -0.0218642, 7965.82, -120.017, 7966.15, 119.977, 44.5595, -30.2076, 35.2905, -151.754, 39.8226, 100.743
3, 1200.00000, 7965.39, -0.0224673, 7965.82, -120.017, 7966.21, 119.977, 44.3616, -28.2807, 35.8864, -150.821, 39.2871, 101.357
3, 1800.00000, 7965.3, -0.0229335, 7965.76, -120.018, 7966.16, 119.977, 45.5161, -28.604, 36.5687, -151.112, 40.2529, 101.384
3, 2400.00000, 7965.19, -0.02312, 7965.75, -120.018, 7966.13, 119.976, 46.4521, -29.3574, 36.6608, -151.198, 41.2957, 101.685
3, 3000.00000, 7965.27, -0.0228251, 7965.69, -120.018, 7966.05, 119.977, 45.5882, -28.9947, 37.5643, -151.324, 40.7194, 99.7843
4, 0.00000, 7965.42, -0.0225067, 7965.78, -120.018, 7966.17, 119.978, 44.1439, -27.8574, 36.6247, -150.725, 39.1858, 100.414
4, 600.00000, 7965.44, -0.0216258, 7965.89, -120.017, 7966.21, 119.978, 43.1087, -28.8735, 34.9843, -150.662, 38.6479, 100.819
4, 1200.00000, 7965.35, -0.0222945, 7965.89, -120.018, 7966.18, 119.977, 44.4426, -28.8755, 35.6144, -149.624, 40.3161, 101.727
4, 1800.00000, 7965.48, -0.0223521, 7965.79, -120.018, 7966.22, 119.978, 43.5911, -27.4898, 36.1902, -151.034, 38.2981, 100.545
4, 2400.00000, 7965.4, -0.0223986, 7965.81, -120.017, 7966.22, 119.978, 44.18, -28.2152, 35.8581, -151.196, 38.9004, 101.133
4, 3000.00000, 7965.33, -0.022667, 7965.8, -120.017, 7966.22, 119.977, 44.9854, -28.6012, 35.8659, -151.355, 39.554, 101.702
5, 0.00000, 7965.39, -0.022133, 7965.89, -120.017, 7966.25, 119.977, 43.9642, -28.6553, 35.0289, -150.443, 39.2139, 101.938
5, 600.00000, 7965.35, -0.0231493, 7965.71, -120.019, 7966.08, 119.977, 45.336, -27.7617, 37.9051, -150.252, 40.5746, 100.236
5, 1200.00000, 7965.44, -0.0218064, 7965.88, -120.017, 7966.2, 119.978, 43.2853, -28.6117, 35.3589, -150.365, 38.901, 100.768
5, 1800.00000, 7965.51, -0.0211153, 7966.04, -120.017, 7966.31, 119.978, 42.0473, -28.8087, 33.4572, -149.359, 38.1778, 102.187
5, 2400.00000, 7965.53, -0.0215317, 7965.95, -120.018, 7966.18, 119.978, 42.3181, -27.9871, 35.4662, -148.382, 39.1184, 100.561
5, 3000.00000, 7965.43, -0.0218739, 7965.92, -120.017, 7966.27, 119.978, 43.387, -28.5655, 34.6162, -150.421, 38.674, 101.943
6, 0.00000, 7965.39, -0.0220873, 7965.96, -120.017, 7966.31, 119.977, 43.9258, -28.7294, 34.2427, -150.21, 39.133, 103
6, 600.00000, 7965.29, -0.022844, 7965.9, -120.018, 7966.17, 119.976, 45.4254, -28.723, 36.043, -148.72, 41.5426, 102.561
6, 1200.00000, 7965.26, -0.0219201, 7965.9, -120.017, 7966.19, 119.977, 44.7287, -30.2803, 34.7135, -150.881, 40.3138, 101.885
6, 1800.00000, 7965.12, -0.0215996, 7965.85, -120.016, 7966.13, 119.977, 45.4328, -32.009, 34.4767, -152.555, 40.7547, 101.222
6, 2400.00000, 7965.18, -0.0207886, 7965.97, -120.016, 7966.13, 119.977, 44.1, -32.474, 33.5416, -151.122, 40.643, 101.116
6, 3000.00000, 7965.25, -0.0215098, 7965.96, -120.017, 7966.16, 119.976, 44.3609, -30.8981, 34.3399, -150.048, 40.7849, 101.762
7, 0.00000, 7965.24, -0.021775, 7965.88, -120.017, 7966.12, 119.977, 44.668, -30.5889, 35.1644, -150.628, 40.7373, 101.053
7, 600.00000, 7965.08, -0.0236171, 7965.77, -120.017, 7966.21, 119.975, 47.7718, -29.7639, 35.9316, -151.9, 41.8021, 103.524
7, 1200.00000, 7964.98, -0.0271477, 7965.57, -120.02, 7966.2, 119.973, 52.3202, -26.7174, 39.8893, -150.417, 44.8666, 105.576
7, 1800.00000, 7964.61, -0.0316799, 7965.28, -120.023, 7965.99, 119.969, 59.8764, -25.3942, 45.6562, -148.732, 51.6267, 106.97
7, 2400.00000, 7964.1, -0.0373246, 7964.98, -120.028, 7965.71, 119.962, 69.6316, -24.4754, 52.8325, -146.301, 61.3222, 108.465
7, 3000.00000, 7963.52, -0.0435042, 7964.62, -120.033, 7965.37, 119.955, 80.5256, -23.91, 61.0007, -144.379, 72.2803, 109.418
8, 0.00000, 7962.87, -0.0487764, 7964.12, -120.037, 7964.87, 119.949, 90.7693, -24.3067, 69.5507, -144.326, 82.2216, 108.601
8, 600.00000, 7962.25, -0.0548981, 7963.81, -120.041, 7964.74, 119.942, 101.853, -24.0928, 75.3624, -143.964, 91.6969, 110.452
8, 1200.00000, 7961.72, -0.0613658, 7963.41, -120.045, 7964.53, 119.936, 112.727, -23.3624, 83.0062, -143.555, 100.929, 111.332
8, 1800.00000, 7961.42, -0.0677577, 7962.91, -120.05, 7964.29, 119.932, 122.069, -21.8666, 92.0568, -143.378, 107.84, 111.432
8, 2400.00000, 7960.84, -0.0758493, 7962.25, -120.059, 7963.54, 119.924, 135.238, -21.0401, 106.924, -141.987, 121.864, 110.151
8, 3000.00000, 7960.19, -0.0853843, 7961.56, -120.068, 7962.94, 119.915, 150.537, -20.1134, 121.813, -141.075, 136.503, 109.958
9, 0.00000, 7959.99, -0.0943174, 7961.05, -120.076, 7962.72, 119.908, 162.604, -18.1529, 134.18, -140.173, 145.976, 110.644
9, 600.00000, 7959.15, -0.103517, 7960.69, -120.081, 7962.67, 119.898, 178.658, -18.261, 141.875, -139.915, 159.514, 112.528
9, 1200.00000, 7958.45, -0.112049, 7960.38, -120.085, 7962.62, 119.889, 193.136, -18.1525, 149.445, -139.513, 172.032, 113.961
9, 1800.00000, 7958.25, -0.121498, 7959.96, -120.093, 7962.59, 119.882, 206.022, -16.6196, 160.606, -138.765, 181.743, 114.942
9, 2400.00000, 7958.22, -0.127467, 7959.63, -120.1, 7962.25, 119.878, 213.715, -15.5032, 171.474, -137.792, 189.543, 114.609
9, 3000.00000, 7957.76, -0.135446, 7959.01, -120.109, 7961.55, 119.87, 226.228, -15.1203, 186.391, -137.324, 202.432, 113.699
10, 0.00000, 7957.41, -0.140118, 7958.84, -120.113, 7961.42, 119.865, 233.94, -15.0845, 191.829, -136.973, 210.033, 114.065
10, 600.00000, 7957.07, -0.144931, 7958.62, -120.117, 7961.22, 119.859, 241.826, -15.0252, 198.244, -136.621, 218.055, 114.225
10, 1200.00000, 7957.07, -0.145893, 7958.52, -120.12, 7960.93, 119.858, 243.074, -14.8734, 202.486, -136.278, 220.892, 113.645
10, 1800.00000, 7957.1, -0.147859, 7958.53, -120.121, 7961.03, 119.857, 245.448, -14.4896, 204.068, -135.969, 222.665, 114.102
10, 2400.00000, 7957.29, -0.147826, 7958.59, -120.12, 7961.28, 119.858, 244.427, -14.0674, 202.373, -136.053, 219.766, 114.574
10, 3000.00000, 7957.57, -0.147128, 7958.65, -120.119, 7961.46, 119.86, 242.179, -13.5756, 201.035, -136.046, 216.313, 114.787
11, 0.00000, 7957.83, -0.146386, 7958.61, -120.119, 7961.52, 119.862, 239.949, -13.1078, 200.936, -136.204, 212.835, 114.619
11, 600.00000, 7957.63, -0.14639, 7958.62, -120.118, 7961.52, 119.862, 240.92, -13.5542, 199.827, -136.357, 214.039, 114.749
11, 1200.00000, 7957.24, -0.145929, 7958.8, -120.118, 7961.35, 119.858, 242.244, -14.4877, 199.052, -135.852, 219.344, 114.717
11, 1800.00000, 7957.42, -0.147892, 7958.49, -120.121, 7961.18, 119.859, 243.905, -13.7875, 204.227, -136.09, 219.005, 114.193
11, 2400.00000, 7957.49, -0.146234, 7958.47, -120.119, 7961.27, 119.861, 241.404, -13.8908, 201.493, -136.612, 215.155, 114.119
11, 3000.00000, 7957.25, -0.148543, 7958.24, -120.122, 7960.93, 119.859, 245.542, -14.0375, 206.785, -136.527, 220.243, 113.593
12, 0.00000, 7957.12, -0.148033, 7958.16, -120.123, 7960.61, 119.858, 245.567, -14.4162, 208.777, -136.464, 222.449, 112.879
12, 600.00000, 7957.23, -0.145032, 7958.14, -120.121, 7960.56, 119.861, 241.142, -14.6565, 206.173, -136.95, 218.026, 112.273
12, 1200.00000, 7957.6, -0.143289, 7958.28, -120.12, 7960.79, 119.864, 237.072, -14.1296, 203.407, -136.936, 212.898, 112.448
12, 1800.00000, 7957.95, -0.140515, 7958.53, -120.115, 7961.36, 119.869, 231.754, -13.7869, 195.846, -137.355, 204.631, 113.325
12, 2400.00000, 7957.41, -0.144809, 7958.14, -120.121, 7960.68, 119.863, 239.96, -14.2986, 205.551, -137.047, 215.569, 112.382
12, 3000.00000, 7957.16, -0.144517, 7958.21, -120.12, 7960.64, 119.861, 240.823, -14.8903, 204.264, -137.04, 217.643, 112.49
13, 0.00000, 7957.46, -0.141184, 7958.42, -120.117, 7960.83, 119.865, 235.08, -14.803, 199.58, -137.086, 212.083, 112.486
13, 600.00000, 7957.64, -0.139713, 7958.65, -120.112, 7961.5, 119.868, 232.264, -14.6362, 191.726, -137.684, 205.275, 113.837
13, 1200.00000, 7957.53, -0.140214, 7958.73, -120.109, 7961.87, 119.868, 233.464, -14.8016, 187.918, -138.091, 204.109, 114.879
13, 1800.00000, 7957.53, -0.142178, 7958.55, -120.114, 7961.49, 119.866, 235.975, -14.4647, 194.435, -137.559, 208.294, 114.087
13, 2400.00000, 7957.63, -0.140999, 7958.68, -120.114, 7961.38, 119.866, 233.988, -14.45, 194.522, -137.061, 208.641, 113.796
13, 3000.00000, 7957.9, -0.137367, 7959.03, -120.112, 7961.48, 119.868, 227.95, -14.4416, 190.304, -136.527, 205.166, 113.755
14, 0.00000, 7958.14, -0.131302, 7959.52, -120.109, 7961.55, 119.871, 218.983, -14.963, 183.134, -135.982, 200.401, 113.486
14, 600.00000, 7958.02, -0.129044, 7960.11, -120.109, 7961.45, 119.868, 216.733, -15.6794, 180.805, -134.155, 205.665, 113.717
14, 1200.00000, 7958.55, -0.119711, 7960.81, -120.102, 7961.79, 119.875, 202.175, -16.2234, 168.264, -133.595, 194.701, 113.649
14, 1800.00000, 7959.01, -0.113784, 7961.12, -120.099, 7961.9, 119.881, 192.25, -16.2605, 162.038, -133.444, 186.426, 113.098
14, 2400.00000, 7958.79, -0.117266, 7960.78, -120.1, 7961.83, 119.879, 197.809, -16.1024, 165.951, -134.129, 189.264, 113.182
14, 3000.00000, 7958.51, -0.117427, 7960.74, -120.099, 7961.85, 119.878, 199.474, -16.7887, 164.433, -134.579, 190.38, 113.384
15, 0.00000, 7958.1, -0.119851, 7960.36, -120.099, 7961.72, 119.876, 204.726, -17.3215, 166.653, -135.751, 192.879, 113.228
15, 600.00000, 7957.91, -0.120764, 7960.27, -120.099, 7961.69, 119.875, 206.924, -17.6125, 167.179, -136.031, 194.53, 113.287
15, 1200.00000, 7958.16, -0.119365, 7960.19, -120.097, 7961.9, 119.879, 203.838, -17.2935, 164.433, -136.909, 188.313, 113.319
15, 1800.00000, 7957.95, -0.123969, 7959.5, -120.102, 7961.41, 119.878, 210.691, -16.8423, 174.389, -137.72, 192.591, 112.156
15, 2400.00000, 7958.22, -0.121896, 7959.94, -120.102, 7961.47, 119.877, 206.663, -16.6043, 172.479, -136.338, 192.621, 112.358
15, 3000.00000, 7958.09, -0.119682, 7960.44, -120.1, 7961.67, 119.876, 204.593, -17.3928, 166.921, -135.363, 194.135, 113.196
16, 0.00000, 7958.08, -0.119726, 7960.39, -120.099, 7961.74, 119.876, 204.723, -17.4177, 166.197, -135.708, 193.089, 113.3
16, 600.00000, 7958.47, -0.113412, 7960.89, -120.092, 7962.22, 119.882, 194.7, -17.7833, 155.258, -135.774, 183.412, 113.843
16, 1200.00000, 7958.8, -0.106189, 7961.38, -120.088, 7962.31, 119.887, 183.958, -18.6031, 146.897, -135.32, 176.418, 113.342
16, 1800.00000, 7959.78, -0.0982452, 7961.73, -120.083, 7962.53, 119.897, 168.637, -17.7546, 139.714, -135.262, 161.853, 112.281
16, 2400.00000, 7960.16, -0.0924942, 7961.99, -120.08, 7962.6, 119.902, 159.445, -18.1416, 133.672, -135.364, 154.249, 111.448
16, 3000.00000, 7960.46, -0.0876411, 7962.28, -120.078, 7962.55, 119.906, 151.752, -18.54, 129.719, -134.78, 149.834, 110.514
17, 0.00000, 7960.65, -0.0840842, 7962.42, -120.071, 7963.06, 119.911, 146.278, -18.9557, 120.789, -136.339, 140.482, 111.271
17, 600.00000, 7960.41, -0.0807096, 7962.61, -120.066, 7963.23, 119.913, 143.627, -20.8869, 113.566, -137.321, 137.858, 111.579
17, 1200.00000, 7961.04, -0.0733498, 7963.03, -120.061, 7963.5, 119.92, 131.039, -21.1981, 104.657, -137.43, 126.499, 110.887
17, 1800.00000, 7961.67, -0.0686534, 7963.45, -120.055, 7964.26, 119.927, 121.623, -20.5008, 94.1431, -138.186, 114.09, 112.552
17, 2400.00000, 7961.98, -0.0672429, 7963.24, -120.051, 7964.55, 119.933, 118.07, -19.7473, 91.2576, -141.059, 105.216, 112.432
17, 3000.00000, 7962.37, -0.0643054, 7963.32, -120.049, 7964.71, 119.937, 112.287, -19.263, 87.9375, -141.869, 98.4913, 111.959
18, 0.00000, 7962.6, -0.0601254, 7963.5, -120.047, 7964.64, 119.941, 105.824, -19.9434, 84.5986, -141.982, 94.1164, 110.416
18, 600.00000, 7963.22, -0.0554198, 7963.9, -120.044, 7964.97, 119.946, 96.5414, -19.0455, 78.3358, -141.45, 85.7437, 110.477
18, 1200.00000, 7963.95, -0.0488356, 7964.23, -120.04, 7965.2, 119.954, 84.2699, -18.1907, 71.5278, -141.908, 74.3397, 108.645
18, 1800.00000, 7964.07, -0.0468904, 7964.43, -120.039, 7965.2, 119.955, 81.2271, -18.5388, 69.5089, -141.061, 73.2055, 108.27
18, 2400.00000, 7964.26, -0.0440035, 7964.55, -120.038, 7965.08, 119.957, 76.5723, -18.9397, 68.1219, -140.534, 70.9854, 106.229
18, 3000.00000, 7964.61, -0.0395395, 7964.84, -120.036, 7965.14, 119.961, 69.128, -19.3472, 63.6331, -140.034, 65.8679, 104.468
19, 0.00000, 7964.94, -0.0342883, 7965.18, -120.032, 7965.35, 119.965, 60.8304, -20.5859, 56.4724, -140.537, 58.8202, 103.118
19, 600.00000, 7964.98, -0.0331722, 7965.23, -120.029, 7965.66, 119.968, 59.2295, -21.1133, 52.294, -142.994, 54.5112, 104.333
19, 1200.00000, 7964.86, -0.0316278, 7965.31, -120.027, 7965.63, 119.968, 58.1667, -23.42, 50.1224, -143.67, 54.3932, 103.825
19, 1800.00000, 7964.83, -0.0314557, 7965.27, -120.027, 7965.61, 119.968, 58.1992, -23.8666, 49.9665, -144.417, 54.1111, 103.453
19, 2400.00000, 7964.78, -0.031762, 7965.27, -120.026, 7965.66, 119.968, 58.8428, -23.9632, 49.6077, -144.749, 54.1823, 104.168
19, 3000.00000, 7964.75, -0.0321384, 7965.15, -120.027, 7965.61, 119.968, 59.4827, -23.8924, 50.5739, -145.714, 54.0738, 103.477
20, 0.00000, 7964.66, -0.0325395, 7965.08, -120.027, 7965.56, 119.968, 60.5562, -24.2935, 51.2222, -146.135, 54.9398, 103.327
20, 600.00000, 7964.69, -0.0314206, 7965.17, -120.026, 7965.54, 119.968, 59.0858, -25.0377, 50.0978, -145.938, 54.4163, 102.776
20, 1200.00000, 7964.7, -0.031517, 7965.08, -120.026, 7965.6, 119.969, 59.1175, -24.8587, 49.9567, -147.531, 52.9379, 102.541
20, 1800.00000, 7964.71, -0.0307084, 7965.11, -120.024, 7965.67, 119.97, 58.1245, -25.4943, 48.3877, -148.656, 51.4134, 102.515
20, 2400.00000, 7964.75, -0.0302452, 7965.21, -120.024, 7965.77, 119.97, 57.3586, -25.6278, 46.8598, -148.539, 50.6506, 103.41
20, 3000.00000, 7964.78, -0.0297158, 7965.21, -120.024, 7965.74, 119.971, 56.5598, -25.8776, 46.7167, -148.673, 50.1948, 102.641
21, 0.00000, 7964.87, -0.0298734, 7965.25, -120.024, 7965.8, 119.971, 56.1083, -24.9506, 46.7254, -148.121, 49.6287, 103.039
21, 600.00000, 7964.95, -0.0295769, 7965.27, -120.023, 7965.87, 119.972, 55.2657, -24.5823, 46.0162, -148.534, 48.2864, 103.18
21, 1200.00000, 7965.01, -0.0286412, 7965.34, -120.024, 7965.75, 119.972, 53.7688, -24.916, 46.2099, -147.118, 48.772, 101.784
21, 1800.00000, 7965, -0.0284964, 7965.32, -120.025, 7965.62, 119.971, 53.6762, -25.1522, 47.2538, -146.283, 49.9187, 100.718
21, 2400.00000, 7964.98, -0.0288317, 7965.33, -120.024, 7965.74, 119.971, 54.221, -25.0398, 46.4066, -147.007, 49.2907, 101.948
21, 3000.00000, 7964.99, -0.0284818, 7965.34, -120.023, 7965.78, 119.972, 53.73, -25.2585, 45.6497, -147.665, 48.3966, 101.954
22, 0.00000, 7964.94, -0.02852, 7965.34, -120.024, 7965.72, 119.971, 54.1046, -25.6489, 46.0299, -147.239, 49.3689, 101.767
22, 600.00000, 7965, -0.0291196, 7965.32, -120.024, 7965.76, 119.971, 54.423, -24.5974, 46.6308, -146.88, 49.2526, 102.228
22, 1200.00000, 7965.02, -0.0283332, 7965.35, -120.023, 7965.83, 119.972, 53.3654, -25.1476, 45.2081, -148.026, 47.6725, 102.059
22, 1800.00000, 7964.97, -0.028705, 7965.3, -120.023, 7965.78, 119.972, 54.0958, -25.187, 45.9225, -148.013, 48.3974, 101.93
22, 2400.00000, 7964.87, -0.030025, 7965.14, -120.025, 7965.65, 119.971, 56.2513, -24.7717, 48.4841, -147.976, 50.2817, 101.438
22, 3000.00000, 7964.89, -0.0286322, 7965.31, -120.024, 7965.7, 119.971, 54.5788, -25.9789, 46.1718, -147.591, 49.6923, 101.711
23, 0.00000, 7964.97, -0.0284177, 7965.32, -120.023, 7965.8, 119.972, 53.7821, -25.4834, 45.4111, -148.307, 48.0349, 101.91
23, 600.00000, 7964.89, -0.0285529, 7965.28, -120.024, 7965.68, 119.971, 54.4932, -26.0608, 46.3368, -147.892, 49.5331, 101.3
23, 1200.00000, 7964.78, -0.028755, 7965.28, -120.024, 7965.57, 119.97, 55.4807, -26.7944, 47.0647, -147.107, 51.5539, 101.192
23, 1800.00000, 7964.77, -0.0291971, 7965.33, -120.024, 7965.65, 119.97, 56.0155, -26.4163, 46.6857, -146.752, 51.7312, 102.419
23, 2400.00000, 7964.84, -0.0290291, 7965.27, -120.024, 7965.72, 119.971, 55.3537, -26.0018, 46.3349, -148.124, 49.8381, 102.052
23, 3000.00000, 7964.98, -0.0286208, 7965.35, -120.024, 7965.72, 119.971, 53.982, -25.2454, 46.2753, -146.745, 49.4515, 101.822
24, 0.00000, 7965.02, -0.0253925, 7965.6, -120.021, 7965.79, 119.973, 50.116, -28.2567, 41.6693, -147.493, 46.9938, 101.048
