hour, t(sec), V1, VAngle1, V2, VAngle2, I1, IAngle1, I2, IAngle2
0, 600.00000, 7966.25, -120.015, 0, 0, 0, 0, 0, 0
0, 1200.00000, 7966.17, -120.014, 0, 0, 0, 0, 0, 0
0, 1800.00000, 7966.25, -120.014, 0, 0, 0, 0, 0, 0
0, 2400.00000, 7966.25, -120.015, 0, 0, 0, 0, 0, 0
0, 3000.00000, 7966.26, -120.014, 0, 0, 0, 0, 0, 0
1, 0.00000, 7966.25, -120.014, 0, 0, 0, 0, 0, 0
1, 600.00000, 7966.16, -120.015, 0, 0, 0, 0, 0, 0
1, 1200.00000, 7966.25, -120.014, 0, 0, 0, 0, 0, 0
1, 1800.00000, 7966.33, -120.014, 0, 0, 0, 0, 0, 0
1, 2400.00000, 7966.26, -120.015, 0, 0, 0, 0, 0, 0
1, 3000.00000, 7966.25, -120.015, 0, 0, 0, 0, 0, 0
2, 0.00000, 7966.3, -120.013, 0, 0, 0, 0, 0, 0
2, 600.00000, 7966.21, -120.014, 0, 0, 0, 0, 0, 0
2, 1200.00000, 7966.14, -120.014, 0, 0, 0, 0, 0, 0
2, 1800.00000, 7966.08, -120.014, 0, 0, 0, 0, 0, 0
2, 2400.00000, 7966.25, -120.012, 0, 0, 0, 0, 0, 0
2, 3000.00000, 7966.35, -120.013, 0, 0, 0, 0, 0, 0
3, 0.00000, 7966.22, -120.014, 0, 0, 0, 0, 0, 0
3, 600.00000, 7966.26, -120.013, 0, 0, 0, 0, 0, 0
3, 1200.00000, 7966.29, -120.013, 0, 0, 0, 0, 0, 0
3, 1800.00000, 7966.2, -120.014, 0, 0, 0, 0, 0, 0
3, 2400.00000, 7966.15, -120.014, 0, 0, 0, 0, 0, 0
3, 3000.00000, 7966.16, -120.014, 0, 0, 0, 0, 0, 0
4, 0.00000, 7966.24, -120.014, 0, 0, 0, 0, 0, 0
4, 600.00000, 7966.35, -120.013, 0, 0, 0, 0, 0, 0
4, 1200.00000, 7966.31, -120.014, 0, 0, 0, 0, 0, 0
4, 1800.00000, 7966.25, -120.013, 0, 0, 0, 0, 0, 0
4, 2400.00000, 7966.28, -120.013, 0, 0, 0, 0, 0, 0
4, 3000.00000, 7966.24, -120.013, 0, 0, 0, 0, 0, 0
5, 0.00000, 7966.36, -120.014, 0, 0, 0, 0, 0, 0
5, 600.00000, 7966.17, -120.014, 0, 0, 0, 0, 0, 0
5, 1200.00000, 7966.29, -120.013, 0, 0, 0, 0, 0, 0
5, 1800.00000, 7966.47, -120.013, 0, 0, 0, 0, 0, 0
5, 2400.00000, 7966.37, -120.014, 0, 0, 0, 0, 0, 0
5, 3000.00000, 7966.35, -120.013, 0, 0, 0, 0, 0, 0
6, 0.00000, 7966.38, -120.013, 0, 0, 0, 0, 0, 0
6, 600.00000, 7966.3, -120.014, 0, 0, 0, 0, 0, 0
6, 1200.00000, 7966.37, -120.013, 0, 0, 0, 0, 0, 0
6, 1800.00000, 7966.3, -120.012, 0, 0, 0, 0, 0, 0
6, 2400.00000, 7966.4, -120.013, 0, 0, 0, 0, 0, 0
6, 3000.00000, 7966.49, -120.013, 0, 0, 0, 0, 0, 0
7, 0.00000, 7966.41, -120.014, 0, 0, 0, 0, 0, 0
7, 600.00000, 7966.27, -120.013, 0, 0, 0, 0, 0, 0
7, 1200.00000, 7966.76, -120.006, 0, 0, 1.05541, 55.5224, 1.05541, -124.478
7, 1800.00000, 7964.44, -120.035, 0, 0, 2.77146, -124.507, 2.77146, 55.4932
7, 2400.00000, 7964.08, -120.04, 0, 0, 2.95298, -124.512, 2.95298, 55.4883
7, 3000.00000, 7963.71, -120.044, 0, 0, 2.96532, -124.516, 2.96532, 55.4845
8, 0.00000, 7962.93, -120.046, 0, 0, 2.74292, -124.518, 2.74292, 55.4821
8, 600.00000, 7962.55, -120.051, 0, 0, 2.93725, -124.522, 2.93725, 55.4779
8, 1200.00000, 7962.33, -120.053, 0, 0, 2.8199, -124.525, 2.8199, 55.4753
8, 1800.00000, 7962.05, -120.054, 0, 0, 2.58556, -124.526, 2.58556, 55.4742
8, 2400.00000, 7961.55, -120.062, 0, 0, 2.49386, -124.533, 2.49386, 55.4669
8, 3000.00000, 7960.9, -120.069, 0, 0, 2.49287, -124.541, 2.49287, 55.4592
9, 0.00000, 7960.13, -120.076, 0, 0, 2.59555, -124.548, 2.59555, 55.452
9, 600.00000, 7959.55, -120.081, 0, 0, 2.67247, -124.553, 2.67247, 55.4471
9, 1200.00000, 7959, -120.088, 0, 0, 3.02173, -124.56, 3.02173, 55.4403
9, 1800.00000, 7958.32, -120.092, 0, 0, 2.87788, -124.563, 2.87788, 55.4366
9, 2400.00000, 7958.21, -120.097, 0, 0, 2.79993, -124.569, 2.79993, 55.4312
9, 3000.00000, 7957.55, -120.104, 0, 0, 2.65629, -124.576, 2.65629, 55.4241
10, 0.00000, 7957.41, -120.109, 0, 0, 2.90222, -124.581, 2.90222, 55.4192
10, 600.00000, 7957.29, -120.109, 0, 0, 2.53925, -124.58, 2.53925, 55.4198
10, 1200.00000, 7956.97, -120.114, 0, 0, 2.86258, -124.585, 2.86258, 55.415
10, 1800.00000, 7957.02, -120.113, 0, 0, 2.57769, -124.584, 2.57769, 55.4155
10, 2400.00000, 7957.27, -120.113, 0, 0, 2.61694, -124.584, 2.61694, 55.4159
10, 3000.00000, 7956.98, -120.115, 0, 0, 2.90145, -124.586, 2.90145, 55.4139
11, 0.00000, 7958.7, -120.096, 0, 0, 0, 0, 0, 0
11, 600.00000, 7958.57, -120.096, 0, 0, 0, 0, 0, 0
11, 1200.00000, 7959.53, -120.085, 0, 0, 0, 0, 0, 0
11, 1800.00000, 7956.85, -120.119, 0, 0, 0, 0, 0, 0
11, 2400.00000, 7957.2, -120.117, 0, 0, 0, 0, 0, 0
11, 3000.00000, 7956.96, -120.12, 0, 0, 0, 0, 0, 0
12, 0.00000, 7957.18, -120.118, 0, 0, 0, 0, 0, 0
12, 600.00000, 7956.87, -120.119, 0, 0, 0, 0, 0, 0
12, 1200.00000, 7957.04, -120.116, 0, 0, 0, 0, 0, 0
12, 1800.00000, 7957.58, -120.109, 0, 0, 0, 0, 0, 0
12, 2400.00000, 7957.05, -120.114, 0, 0, 0, 0, 0, 0
12, 3000.00000, 7957.09, -120.114, 0, 0, 0, 0, 0, 0
13, 0.00000, 7957.1, -120.112, 0, 0, 0, 0, 0, 0
13, 600.00000, 7957.51, -120.107, 0, 0, 0, 0, 0, 0
13, 1200.00000, 7957.63, -120.108, 0, 0, 0, 0, 0, 0
13, 1800.00000, 7957.4, -120.11, 0, 0, 0, 0, 0, 0
13, 2400.00000, 7957.67, -120.109, 0, 0, 0, 0, 0, 0
13, 3000.00000, 7958.04, -120.107, 0, 0, 0, 0, 0, 0
14, 0.00000, 7958.56, -120.106, 0, 0, 0, 0, 0, 0
14, 600.00000, 7959.27, -120.102, 0, 0, 0, 0, 0, 0
14, 1200.00000, 7959.99, -120.1, 0, 0, 0, 0, 0, 0
14, 1800.00000, 7960.46, -120.094, 0, 0, 0, 0, 0, 0
14, 2400.00000, 7959.69, -120.097, 0, 0, 0, 0, 0, 0
14, 3000.00000, 7959.51, -120.099, 0, 0, 0, 0, 0, 0
15, 0.00000, 7960.66, -120.076, 0, 0, 0, 0, 0, 0
15, 600.00000, 7960.69, -120.075, 0, 0, 0, 0, 0, 0
15, 1200.00000, 7961.65, -120.064, 0, 0, 0, 0, 0, 0
15, 1800.00000, 7958.64, -120.092, 0, 0, 0, 0, 0, 0
15, 2400.00000, 7959.04, -120.094, 0, 0, 0, 0, 0, 0
15, 3000.00000, 7959.5, -120.093, 0, 0, 0, 0, 0, 0
16, 0.00000, 7959.46, -120.091, 0, 0, 0, 0, 0, 0
16, 600.00000, 7959.86, -120.088, 0, 0, 0, 0, 0, 0
16, 1200.00000, 7960.45, -120.083, 0, 0, 0, 0, 0, 0
16, 1800.00000, 7961.12, -120.078, 0, 0, 0, 0, 0, 0
16, 2400.00000, 7961.6, -120.074, 0, 0, 0, 0, 0, 0
16, 3000.00000, 7961.5, -120.073, 0, 0, 0, 0, 0, 0
17, 0.00000, 7961.63, -120.069, 0, 0, 0, 0, 0, 0
17, 600.00000, 7962.19, -120.064, 0, 0, 0, 0, 0, 0
17, 1200.00000, 7962.39, -120.063, 0, 0, 0, 0, 0, 0
17, 1800.00000, 7963.05, -120.056, 0, 0, 0, 0, 0, 0
17, 2400.00000, 7962.75, -120.052, 0, 0, 0, 0, 0, 0
17, 3000.00000, 7962.95, -120.049, 0, 0, 0, 0, 0, 0
18, 0.00000, 7962.97, -120.05, 0, 0, 0, 0, 0, 0
18, 600.00000, 7963.4, -120.046, 0, 0, 0, 0, 0, 0
18, 1200.00000, 7963.68, -120.045, 0, 0, 0, 0, 0, 0
18, 1800.00000, 7963.93, -120.042, 0, 0, 0, 0, 0, 0
18, 2400.00000, 7963.95, -120.042, 0, 0, 0, 0, 0, 0
18, 3000.00000, 7964.16, -120.042, 0, 0, 0, 0, 0, 0
19, 0.00000, 7965.78, -120.023, 0, 0, 0, 0, 0, 0
19, 600.00000, 7965.88, -120.02, 0, 0, 0, 0, 0, 0
19, 1200.00000, 7965.92, -120.02, 0, 0, 0, 0, 0, 0
19, 1800.00000, 7965.87, -120.019, 0, 0, 0, 0, 0, 0
19, 2400.00000, 7965.9, -120.019, 0, 0, 0, 0, 0, 0
19, 3000.00000, 7965.79, -120.019, 0, 0, 0, 0, 0, 0
20, 0.00000, 7965.74, -120.019, 0, 0, 0, 0, 0, 0
20, 600.00000, 7965.68, -120.019, 0, 0, 0, 0, 0, 0
20, 1200.00000, 7965.69, -120.019, 0, 0, 0, 0, 0, 0
20, 1800.00000, 7965.68, -120.017, 0, 0, 0, 0, 0, 0
20, 2400.00000, 7965.81, -120.017, 0, 0, 0, 0, 0, 0
20, 3000.00000, 7965.75, -120.017, 0, 0, 0, 0, 0, 0
21, 0.00000, 7965.81, -120.017, 0, 0, 0, 0, 0, 0
21, 600.00000, 7965.86, -120.016, 0, 0, 0, 0, 0, 0
21, 1200.00000, 7965.88, -120.017, 0, 0, 0, 0, 0, 0
21, 1800.00000, 7965.86, -120.018, 0, 0, 0, 0, 0, 0
21, 2400.00000, 7965.87, -120.017, 0, 0, 0, 0, 0, 0
21, 3000.00000, 7965.92, -120.016, 0, 0, 0, 0, 0, 0
22, 0.00000, 7965.85, -120.017, 0, 0, 0, 0, 0, 0
22, 600.00000, 7965.85, -120.017, 0, 0, 0, 0, 0, 0
22, 1200.00000, 7965.9, -120.016, 0, 0, 0, 0, 0, 0
22, 1800.00000, 7965.89, -120.016, 0, 0, 0, 0, 0, 0
22, 2400.00000, 7965.65, -120.018, 0, 0, 0, 0, 0, 0
22, 3000.00000, 7965.82, -120.017, 0, 0, 0, 0, 0, 0
23, 0.00000, 7965.91, -120.016, 0, 0, 0, 0, 0, 0
23, 600.00000, 7965.85, -120.017, 0, 0, 0, 0, 0, 0
23, 1200.00000, 7965.8, -120.018, 0, 0, 0, 0, 0, 0
23, 1800.00000, 7965.81, -120.018, 0, 0, 0, 0, 0, 0
23, 2400.00000, 7965.84, -120.017, 0, 0, 0, 0, 0, 0
23, 3000.00000, 7965.92, -120.017, 0, 0, 0, 0, 0, 0
24, 0.00000, 7966.05, -120.016, 0, 0, 0, 0, 0, 0
